#Parameters = {Epsilon=3; a=8.636; b=4.318; d_new=2; d_odj=74.4; h=1; l=26; l_old=26; tg_delta=0.01}
#"Frequency / GHz"	"S1,1 [Re]"	"S1,1 [Im]"	"Ref.Imp. [Re]"	"Ref.Imp. [Im]"
#-------------------------------------------------------------------------
22.000000000000	-0.65429689845349	0.29127876559205	613.01104519995	0.0000000000000
22.006000000000	-0.65263129992058	0.29462277437657	612.76353518974	0.0000000000000
22.012000000000	-0.65094921267662	0.29795629929239	612.51602517953	0.0000000000000
22.018000000000	-0.64925070693387	0.30127926184379	612.26851516932	0.0000000000000
22.024000000000	-0.64753585323361	0.30459158404801	612.02100515911	0.0000000000000
22.030000000000	-0.64580472244218	0.30789318843585	611.77349514890	0.0000000000000
22.036000000000	-0.64405738574701	0.31118399805211	611.52598513869	0.0000000000000
22.042000000000	-0.64229391465272	0.31446393645612	611.27847512848	0.0000000000000
22.048000000000	-0.64051438097719	0.31773292772215	611.03096511826	0.0000000000000
22.054000000000	-0.63871885684763	0.32099089643984	610.78345510805	0.0000000000000
22.060000000000	-0.63690741469674	0.32423776771459	610.53594509784	0.0000000000000
22.066000000000	-0.63508012725882	0.32747346716789	610.28843508763	0.0000000000000
22.072000000000	-0.63323706756589	0.33069792093771	610.04092507742	0.0000000000000
22.078000000000	-0.63137830894389	0.33391105567876	609.79341506721	0.0000000000000
22.084000000000	-0.62950392500883	0.33711279856276	609.54590505700	0.0000000000000
22.090000000000	-0.62761398966299	0.34030307727874	609.29839504679	0.0000000000000
22.096000000000	-0.62570857709112	0.34348182003323	609.05088503658	0.0000000000000
22.102000000000	-0.62378776175668	0.34664895555044	608.80337502637	0.0000000000000
22.108000000000	-0.62185161839808	0.34980441307248	608.55586501616	0.0000000000000
22.114000000000	-0.61990022202491	0.35294812235949	608.30835500594	0.0000000000000
22.120000000000	-0.61793364791425	0.35608001368973	608.06084499573	0.0000000000000
22.126000000000	-0.61595197160694	0.35920001785972	607.81333498552	0.0000000000000
22.132000000000	-0.61395526890390	0.36230806618429	607.56582497531	0.0000000000000
22.138000000000	-0.61194361586244	0.36540409049663	607.31831496510	0.0000000000000
22.144000000000	-0.60991708879261	0.36848802314834	607.07080495489	0.0000000000000
22.150000000000	-0.60787576425356	0.37155979700937	606.82329494468	0.0000000000000
22.156000000000	-0.60581971904993	0.37461934546807	606.57578493447	0.0000000000000
22.162000000000	-0.60374903022820	0.37766660243109	606.32827492426	0.0000000000000
22.168000000000	-0.60166377507315	0.38070150232334	606.08076491405	0.0000000000000
22.174000000000	-0.59956403110427	0.38372398008788	605.83325490384	0.0000000000000
22.180000000000	-0.59744987607218	0.38673397118583	605.58574489362	0.0000000000000
22.186000000000	-0.59532138795516	0.38973141159622	605.33823488341	0.0000000000000
22.192000000000	-0.59317864495554	0.39271623781582	605.09072487320	0.0000000000000
22.198000000000	-0.59102172549627	0.39568838685899	604.84321486299	0.0000000000000
22.204000000000	-0.58885070821743	0.39864779625747	604.59570485278	0.0000000000000
22.210000000000	-0.58666567197273	0.40159440406015	604.34819484257	0.0000000000000
22.216000000000	-0.58446669582607	0.40452814883285	604.10068483236	0.0000000000000
22.222000000000	-0.58225385904816	0.40744896965803	603.85317482215	0.0000000000000
22.228000000000	-0.58002724111302	0.41035680613454	603.60566481194	0.0000000000000
22.234000000000	-0.57778692169468	0.41325159837732	603.35815480173	0.0000000000000
22.240000000000	-0.57553298066374	0.41613328701706	603.11064479152	0.0000000000000
22.246000000000	-0.57326549808403	0.41900181319987	602.86313478130	0.0000000000000
22.252000000000	-0.57098455420928	0.42185711858692	602.61562477109	0.0000000000000
22.258000000000	-0.56869022947980	0.42469914535409	602.36811476088	0.0000000000000
22.264000000000	-0.56638260451916	0.42752783619155	602.12060475067	0.0000000000000
22.270000000000	-0.56406176013091	0.43034313430336	601.87309474046	0.0000000000000
22.276000000000	-0.56172777729534	0.43314498340703	601.62558473025	0.0000000000000
22.282000000000	-0.55938073716618	0.43593332773309	601.37807472004	0.0000000000000
22.288000000000	-0.55702072106741	0.43870811202462	601.13056470983	0.0000000000000
22.294000000000	-0.55464781049006	0.44146928153678	600.88305469962	0.0000000000000
22.300000000000	-0.55226208708895	0.44421678203630	600.63554468941	0.0000000000000
22.306000000000	-0.54986363267959	0.44695055980096	600.38803467920	0.0000000000000
22.312000000000	-0.54745252923498	0.44967056161909	600.14052466898	0.0000000000000
22.318000000000	-0.54502885888249	0.45237673478902	599.89301465877	0.0000000000000
22.324000000000	-0.54259270390071	0.45506902711847	599.64550464856	0.0000000000000
22.330000000000	-0.54014414671638	0.45774738692406	599.39799463835	0.0000000000000
22.336000000000	-0.53768326990130	0.46041176303065	599.15048462814	0.0000000000000
22.342000000000	-0.53521015616923	0.46306210477077	598.90297461793	0.0000000000000
22.348000000000	-0.53272488837291	0.46569836198399	598.65546460772	0.0000000000000
22.354000000000	-0.53022754950094	0.46832048501630	598.40795459751	0.0000000000000
22.360000000000	-0.52771822267486	0.47092842471943	598.16044458730	0.0000000000000
22.366000000000	-0.52519699114608	0.47352213245022	597.91293457709	0.0000000000000
22.372000000000	-0.52266393829296	0.47610156006995	597.66542456688	0.0000000000000
22.378000000000	-0.52011914761781	0.47866665994362	597.41791455666	0.0000000000000
22.384000000000	-0.51756270274398	0.48121738493926	597.17040454645	0.0000000000000
22.390000000000	-0.51499468741292	0.48375368842725	596.92289453624	0.0000000000000
22.396000000000	-0.51241518548130	0.48627552427955	596.67538452603	0.0000000000000
22.402000000000	-0.50982428091809	0.48878284686897	596.42787451582	0.0000000000000
22.408000000000	-0.50722205780171	0.49127561106845	596.18036450561	0.0000000000000
22.414000000000	-0.50460860031720	0.49375377225026	595.93285449540	0.0000000000000
22.420000000000	-0.50198399275335	0.49621728628524	595.68534448519	0.0000000000000
22.426000000000	-0.49934831949990	0.49866610954201	595.43783447498	0.0000000000000
22.432000000000	-0.49670166504476	0.50110019888619	595.19032446477	0.0000000000000
22.438000000000	-0.49404411397120	0.50351951167957	594.94281445456	0.0000000000000
22.444000000000	-0.49137575095512	0.50592400577931	594.69530444435	0.0000000000000
22.450000000000	-0.48869666076228	0.50831363953708	594.44779443413	0.0000000000000
22.456000000000	-0.48600692824559	0.51068837179827	594.20028442392	0.0000000000000
22.462000000000	-0.48330663834239	0.51304816190107	593.95277441371	0.0000000000000
22.468000000000	-0.48059587607176	0.51539296967570	593.70526440350	0.0000000000000
22.474000000000	-0.47787472653186	0.51772275544345	593.45775439329	0.0000000000000
22.480000000000	-0.47514327489725	0.52003748001585	593.21024438308	0.0000000000000
22.486000000000	-0.47240160641625	0.52233710469378	592.96273437287	0.0000000000000
22.492000000000	-0.46964980640836	0.52462159126657	592.71522436266	0.0000000000000
22.498000000000	-0.46688796026157	0.52689090201106	592.46771435245	0.0000000000000
22.504000000000	-0.46411615342988	0.52914499969073	592.22020434224	0.0000000000000
22.510000000000	-0.46133447143062	0.53138384755476	591.97269433203	0.0000000000000
22.516000000000	-0.45854299984198	0.53360740933707	591.72518432181	0.0000000000000
22.522000000000	-0.45574182430040	0.53581564925544	591.47767431160	0.0000000000000
22.528000000000	-0.45293103049811	0.53800853201048	591.23016430139	0.0000000000000
22.534000000000	-0.45011070418060	0.54018602278473	590.98265429118	0.0000000000000
22.540000000000	-0.44728093114411	0.54234808724169	590.73514428097	0.0000000000000
22.546000000000	-0.44444179723319	0.54449469152484	590.48763427076	0.0000000000000
22.552000000000	-0.44159338833822	0.54662580225663	590.24012426055	0.0000000000000
22.558000000000	-0.43873579039300	0.54874138653755	589.99261425034	0.0000000000000
22.564000000000	-0.43586908937229	0.55084141194509	589.74510424013	0.0000000000000
22.570000000000	-0.43299337128942	0.55292584653275	589.49759422992	0.0000000000000
22.576000000000	-0.43010872219393	0.55499465882906	589.25008421971	0.0000000000000
22.582000000000	-0.42721522816912	0.55704781783653	589.00257420949	0.0000000000000
22.588000000000	-0.42431297532976	0.55908529303063	588.75506419928	0.0000000000000
22.594000000000	-0.42140204981972	0.56110705435879	588.50755418907	0.0000000000000
22.600000000000	-0.41848253780964	0.56311307223936	588.26004417886	0.0000000000000
22.606000000000	-0.41555452549462	0.56510331756054	588.01253416865	0.0000000000000
22.612000000000	-0.41261809909193	0.56707776167937	587.76502415844	0.0000000000000
22.618000000000	-0.40967334483872	0.56903637642068	587.51751414823	0.0000000000000
22.624000000000	-0.40672034898976	0.57097913407600	587.27000413802	0.0000000000000
22.630000000000	-0.40375919781518	0.57290600740254	587.02249412781	0.0000000000000
22.636000000000	-0.40078997759825	0.57481696962210	586.83392704533	0.0000000000000
22.642000000000	-0.39781277463315	0.57671199442000	586.64535996286	0.0000000000000
22.648000000000	-0.39482767522277	0.57859105594400	586.45679288039	0.0000000000000
22.654000000000	-0.39183476567651	0.58045412880324	586.26822579791	0.0000000000000
22.660000000000	-0.38883413230810	0.58230118806714	586.07965871544	0.0000000000000
22.666000000000	-0.38582586143348	0.58413220926429	585.89109163297	0.0000000000000
22.672000000000	-0.38281003936861	0.58594716838139	585.70252455049	0.0000000000000
22.678000000000	-0.37978675242733	0.58774604186213	585.51395746802	0.0000000000000
22.684000000000	-0.37675608691931	0.58952880660611	585.32539038554	0.0000000000000
22.690000000000	-0.37371812914786	0.59129543996768	585.13682330307	0.0000000000000
22.696000000000	-0.37067296540790	0.59304591975491	584.94825622060	0.0000000000000
22.702000000000	-0.36762068198389	0.59478022422838	584.75968913812	0.0000000000000
22.708000000000	-0.36456136514771	0.59649833210014	584.57112205565	0.0000000000000
22.714000000000	-0.36149510115669	0.59820022253255	584.38255497318	0.0000000000000
22.720000000000	-0.35842197625152	0.59988587513717	584.19398789070	0.0000000000000
22.726000000000	-0.35534207665426	0.60155526997361	584.00542080823	0.0000000000000
22.732000000000	-0.35225548856631	0.60320838754843	583.81685372576	0.0000000000000
22.738000000000	-0.34916229816647	0.60484520881395	583.62828664328	0.0000000000000
22.744000000000	-0.34606259160889	0.60646571516720	583.43971956081	0.0000000000000
22.750000000000	-0.34295645502117	0.60806988844867	583.25115247833	0.0000000000000
22.756000000000	-0.33984397450237	0.60965771094127	583.06258539586	0.0000000000000
22.762000000000	-0.33672523612109	0.61122916536910	582.87401831339	0.0000000000000
22.768000000000	-0.33360032591353	0.61278423489635	582.68545123091	0.0000000000000
22.774000000000	-0.33046932988159	0.61432290312614	582.49688414844	0.0000000000000
22.780000000000	-0.32733233399097	0.61584515409934	582.30831706597	0.0000000000000
22.786000000000	-0.32418942416928	0.61735097229344	582.11974998349	0.0000000000000
22.792000000000	-0.32104068630418	0.61884034262140	581.93118290102	0.0000000000000
22.798000000000	-0.31788620624147	0.62031325043045	581.74261581854	0.0000000000000
22.804000000000	-0.31472606978332	0.62176968150095	581.55404873607	0.0000000000000
22.810000000000	-0.31156036268638	0.62320962204523	581.36548165360	0.0000000000000
22.816000000000	-0.30838917065994	0.62463305870641	581.17691457112	0.0000000000000
22.822000000000	-0.30521257936418	0.62603997855724	580.98834748865	0.0000000000000
22.828000000000	-0.30203067440833	0.62743036909892	580.79978040618	0.0000000000000
22.834000000000	-0.29884354134887	0.62880421825994	580.61121332370	0.0000000000000
22.840000000000	-0.29565126568780	0.63016151439489	580.42264624123	0.0000000000000
22.846000000000	-0.29245393287084	0.63150224628330	580.23407915876	0.0000000000000
22.852000000000	-0.28925162828567	0.63282640312845	580.04551207628	0.0000000000000
22.858000000000	-0.28604443726023	0.63413397455619	579.85694499381	0.0000000000000
22.864000000000	-0.28283244506096	0.63542495061378	579.66837791133	0.0000000000000
22.870000000000	-0.27961573689110	0.63669932176869	579.47981082886	0.0000000000000
22.876000000000	-0.27639439788895	0.63795707890740	579.29124374639	0.0000000000000
22.882000000000	-0.27316851312621	0.63919821333428	579.10267666391	0.0000000000000
22.888000000000	-0.26993816760631	0.64042271677033	578.91410958144	0.0000000000000
22.894000000000	-0.26670344626268	0.64163058135204	578.72554249897	0.0000000000000
22.900000000000	-0.26346443395713	0.64282179963020	578.53697541649	0.0000000000000
22.906000000000	-0.26022121547819	0.64399636456867	578.34840833402	0.0000000000000
22.912000000000	-0.25697387553949	0.64515426954327	578.15984125155	0.0000000000000
22.918000000000	-0.25372249877807	0.64629550834051	577.97127416907	0.0000000000000
22.924000000000	-0.25046716975283	0.64742007515646	577.78270708660	0.0000000000000
22.930000000000	-0.24720797294289	0.64852796459550	577.59414000412	0.0000000000000
22.936000000000	-0.24394499274598	0.64961917166921	577.40557292165	0.0000000000000
22.942000000000	-0.24067831347688	0.65069369179509	577.21700583918	0.0000000000000
22.948000000000	-0.23740801936581	0.65175152079542	577.02843875670	0.0000000000000
22.954000000000	-0.23413419455691	0.65279265489607	576.83987167423	0.0000000000000
22.960000000000	-0.23085692310663	0.65381709072527	576.65130459176	0.0000000000000
22.966000000000	-0.22757628898222	0.65482482531244	576.46273750928	0.0000000000000
22.972000000000	-0.22429237606015	0.65581585608701	576.27417042681	0.0000000000000
22.978000000000	-0.22100526812464	0.65679018087719	576.08560334433	0.0000000000000
22.984000000000	-0.21771504886610	0.65774779790879	575.89703626186	0.0000000000000
22.990000000000	-0.21442180187964	0.65868870580405	575.70846917939	0.0000000000000
22.996000000000	-0.21112561066354	0.65961290358038	575.51990209691	0.0000000000000
23.002000000000	-0.20782655861781	0.66052039064926	575.33133501444	0.0000000000000
23.008000000000	-0.20452472904266	0.66141116681494	575.14276793197	0.0000000000000
23.014000000000	-0.20122020513707	0.66228523227331	574.95420084949	0.0000000000000
23.020000000000	-0.19791306999731	0.66314258761070	574.76563376702	0.0000000000000
23.026000000000	-0.19460340661545	0.66398323380266	574.57706668455	0.0000000000000
23.032000000000	-0.19129129787800	0.66480717221276	574.38849960207	0.0000000000000
23.038000000000	-0.18797682656439	0.66561440459143	574.19993251960	0.0000000000000
23.044000000000	-0.18466007534559	0.66640493307473	574.01136543712	0.0000000000000
23.050000000000	-0.18134112678269	0.66717876018316	573.82279835465	0.0000000000000
23.056000000000	-0.17802006332548	0.66793588882047	573.63423127218	0.0000000000000
23.062000000000	-0.17469696731103	0.66867632227246	573.44566418970	0.0000000000000
23.068000000000	-0.17137192096234	0.66940006420580	573.25709710723	0.0000000000000
23.074000000000	-0.16804500638693	0.67010711866680	573.06853002476	0.0000000000000
23.080000000000	-0.16471630557548	0.67079749008023	572.87996294228	0.0000000000000
23.086000000000	-0.16138590040043	0.67147118324815	572.69139585981	0.0000000000000
23.092000000000	-0.15805387261465	0.67212820334867	572.50282877734	0.0000000000000
23.098000000000	-0.15472030385011	0.67276855593477	572.31426169486	0.0000000000000
23.104000000000	-0.15138527561647	0.67339224693313	572.12569461239	0.0000000000000
23.110000000000	-0.14804886929981	0.67399928264291	571.93712752991	0.0000000000000
23.116000000000	-0.14471116616127	0.67458966973454	571.74856044744	0.0000000000000
23.122000000000	-0.14137224733573	0.67516341524856	571.55999336497	0.0000000000000
23.128000000000	-0.13803219383052	0.67572052659442	571.37142628249	0.0000000000000
23.134000000000	-0.13469108652409	0.67626101154925	571.18285920002	0.0000000000000
23.140000000000	-0.13134900616473	0.67678487825671	570.99429211755	0.0000000000000
23.146000000000	-0.12800603336929	0.67729213522577	570.80572503507	0.0000000000000
23.152000000000	-0.12466224862186	0.67778279132952	570.61715795260	0.0000000000000
23.158000000000	-0.12131773227254	0.67825685580400	570.42859087013	0.0000000000000
23.164000000000	-0.11797256453614	0.67871433824697	570.24002378765	0.0000000000000
23.170000000000	-0.11462682549094	0.67915524861673	570.05145670518	0.0000000000000
23.176000000000	-0.11128059507745	0.67957959723095	569.86288962270	0.0000000000000
23.182000000000	-0.10793395309711	0.67998739476545	569.67432254023	0.0000000000000
23.188000000000	-0.10458697921111	0.68037865225302	569.48575545776	0.0000000000000
23.194000000000	-0.10123975293914	0.68075338108222	569.29718837528	0.0000000000000
23.200000000000	-0.097892353658153	0.68111159299622	569.10862129281	0.0000000000000
23.206000000000	-0.094544860601154	0.68145330009156	568.92005421034	0.0000000000000
23.212000000000	-0.091197352855998	0.68177851481699	568.73148712786	0.0000000000000
23.218000000000	-0.087849909364173	0.68208724997227	568.54292004539	0.0000000000000
23.224000000000	-0.084502608919611	0.68237951870701	568.35435296291	0.0000000000000
23.230000000000	-0.081155530167492	0.68265533451942	568.16578588044	0.0000000000000
23.236000000000	-0.077808751603062	0.68291471125517	567.97721879797	0.0000000000000
23.242000000000	-0.074462351570456	0.68315766310619	567.78865171549	0.0000000000000
23.248000000000	-0.071116408261523	0.68338420460946	567.60008463302	0.0000000000000
23.254000000000	-0.067770999714661	0.68359435064587	567.41151755055	0.0000000000000
23.260000000000	-0.064426203813661	0.68378811643895	567.22295046807	0.0000000000000
23.266000000000	-0.061082098286555	0.68396551755379	567.03438338560	0.0000000000000
23.272000000000	-0.057738760704459	0.68412656989574	566.84581630313	0.0000000000000
23.278000000000	-0.054396268480448	0.68427128970932	566.65724922065	0.0000000000000
23.284000000000	-0.051054698868411	0.68439969357696	566.46868213818	0.0000000000000
23.290000000000	-0.047714128961925	0.68451179841784	566.28011505570	0.0000000000000
23.296000000000	-0.044374635693136	0.68460762148674	566.09154797323	0.0000000000000
23.302000000000	-0.041036295831636	0.68468718037278	565.90298089076	0.0000000000000
23.308000000000	-0.037699185983359	0.68475049299828	565.71441380828	0.0000000000000
23.314000000000	-0.034363382589472	0.68479757761759	565.52584672581	0.0000000000000
23.320000000000	-0.031028961925278	0.68482845281585	565.33727964334	0.0000000000000
23.326000000000	-0.027696000099122	0.68484313750785	565.14871256086	0.0000000000000
23.332000000000	-0.024364573051302	0.68484165093682	564.96014547839	0.0000000000000
23.338000000000	-0.021034756552990	0.68482401267325	564.77157839592	0.0000000000000
23.344000000000	-0.017706626205155	0.68479024261373	564.58301131344	0.0000000000000
23.350000000000	-0.014380257437488	0.68474036097972	564.39444423097	0.0000000000000
23.356000000000	-0.011055725507345	0.68467438831638	564.20587714849	0.0000000000000
23.362000000000	-0.0077331054986765	0.68459234549142	564.01731006602	0.0000000000000
23.368000000000	-0.0044124723209847	0.68449425369387	563.82874298355	0.0000000000000
23.374000000000	-0.0010939007082613	0.68438013443290	563.64017590107	0.0000000000000
23.380000000000	0.0022225347820437	0.68425000953666	563.45160881860	0.0000000000000
23.386000000000	0.0055367597700669	0.68410390115109	563.26304173613	0.0000000000000
23.392000000000	0.0088487000545644	0.68394183173872	563.07447465365	0.0000000000000
23.398000000000	0.012158281613939	0.68376382407749	562.88590757118	0.0000000000000
