#Parameters = {Epsilon=3; a=8.636; b=4.318; d_new=2; d_odj=74.4; h=1; l=26; l_old=26; tg_delta=0.01}
#"Frequency / GHz"	"S1,2 [Re]"	"S1,2 [Im]"
#-----------------------------------------
22.000000000000	-0.56798830196220	-0.38461884137379
22.006000000000	-0.57027212019294	-0.38151014073586
22.012000000000	-0.57253811198341	-0.37838881332650
22.018000000000	-0.57478621158567	-0.37525496699685
22.024000000000	-0.57701635395953	-0.37210870989470
22.030000000000	-0.57922847477309	-0.36895015045947
22.036000000000	-0.58142251040332	-0.36577939741716
22.042000000000	-0.58359839793654	-0.36259655977538
22.048000000000	-0.58575607516892	-0.35940174681835
22.054000000000	-0.58789548060688	-0.35619506810193
22.060000000000	-0.59001655346749	-0.35297663344865
22.066000000000	-0.59211923367885	-0.34974655294278
22.072000000000	-0.59420346188041	-0.34650493692536
22.078000000000	-0.59626917942325	-0.34325189598934
22.084000000000	-0.59831632837037	-0.33998754097463
22.090000000000	-0.60034485149686	-0.33671198296321
22.096000000000	-0.60235469229015	-0.33342533327428
22.102000000000	-0.60434579495011	-0.33012770345939
22.108000000000	-0.60631810438922	-0.32681920529759
22.114000000000	-0.60827156623263	-0.32349995079061
22.120000000000	-0.61020612681823	-0.32017005215804
22.126000000000	-0.61212173319667	-0.31682962183255
22.132000000000	-0.61401833313136	-0.31347877245508
22.138000000000	-0.61589587509841	-0.31011761687010
22.144000000000	-0.61775430828660	-0.30674626812085
22.150000000000	-0.61959358259723	-0.30336483944463
22.156000000000	-0.62141364864403	-0.29997344426803
22.162000000000	-0.62321445775297	-0.29657219620232
22.168000000000	-0.62499596196209	-0.29316120903867
22.174000000000	-0.62675811402125	-0.28974059674357
22.180000000000	-0.62850086739190	-0.28631047345415
22.186000000000	-0.63022417624679	-0.28287095347352
22.192000000000	-0.63192799546965	-0.27942215126622
22.198000000000	-0.63361228065487	-0.27596418145359
22.204000000000	-0.63527698810714	-0.27249715880919
22.210000000000	-0.63692207484100	-0.26902119825426
22.216000000000	-0.63854749858048	-0.26553641485319
22.222000000000	-0.64015321775862	-0.26204292380895
22.228000000000	-0.64173919151699	-0.25854084045865
22.234000000000	-0.64330537970519	-0.25503028026901
22.240000000000	-0.64485174288030	-0.25151135883191
22.246000000000	-0.64637824230638	-0.24798419185995
22.252000000000	-0.64788483995381	-0.24444889518200
22.258000000000	-0.64937149849873	-0.24090558473882
22.264000000000	-0.65083818132237	-0.23735437657865
22.270000000000	-0.65228485251043	-0.23379538685284
22.276000000000	-0.65371147685236	-0.23022873181148
22.282000000000	-0.65511801984067	-0.22665452779911
22.288000000000	-0.65650444767019	-0.22307289125038
22.294000000000	-0.65787072723729	-0.21948393868573
22.300000000000	-0.65921682613915	-0.21588778670717
22.306000000000	-0.66054271267288	-0.21228455199397
22.312000000000	-0.66184835583477	-0.20867435129845
22.318000000000	-0.66313372531937	-0.20505730144178
22.324000000000	-0.66439879151866	-0.20143351930973
22.330000000000	-0.66564352552115	-0.19780312184855
22.336000000000	-0.66686789911092	-0.19416622606076
22.342000000000	-0.66807188476673	-0.19052294900105
22.348000000000	-0.66925545566103	-0.18687340777216
22.354000000000	-0.67041858565897	-0.18321771952073
22.360000000000	-0.67156124931743	-0.17955600143329
22.366000000000	-0.67268342188395	-0.17588837073217
22.372000000000	-0.67378507929571	-0.17221494467143
22.378000000000	-0.67486619817845	-0.16853584053290
22.384000000000	-0.67592675584543	-0.16485117562213
22.390000000000	-0.67696673029623	-0.16116106726445
22.396000000000	-0.67798610021571	-0.15746563280097
22.402000000000	-0.67898484497284	-0.15376498958468
22.408000000000	-0.67996294461952	-0.15005925497649
22.414000000000	-0.68092037988942	-0.14634854634136
22.420000000000	-0.68185713219674	-0.14263298104443
22.426000000000	-0.68277318363504	-0.13891267644713
22.432000000000	-0.68366851697599	-0.13518774990333
22.438000000000	-0.68454311566808	-0.13145831875558
22.444000000000	-0.68539696383540	-0.12772450033126
22.450000000000	-0.68623004627630	-0.12398641193881
22.456000000000	-0.68704234846212	-0.12024417086398
22.462000000000	-0.68783385653585	-0.11649789436608
22.468000000000	-0.68860455731079	-0.11274769967428
22.474000000000	-0.68935443826921	-0.10899370398388
22.480000000000	-0.69008348756094	-0.10523602445267
22.486000000000	-0.69079169400204	-0.10147477819723
22.492000000000	-0.69147904707333	-0.097710082289309
22.498000000000	-0.69214553691902	-0.093942053752224
22.504000000000	-0.69279115434526	-0.090170809557226
22.510000000000	-0.69341589081866	-0.086396466619941
22.516000000000	-0.69401973846490	-0.082619141796810
22.522000000000	-0.69460269006716	-0.078838951881536
22.528000000000	-0.69516473906471	-0.075056013601579
22.534000000000	-0.69570587955133	-0.071270443614647
22.540000000000	-0.69622610627386	-0.067482358505217
22.546000000000	-0.69672541463059	-0.063691874781073
22.552000000000	-0.69720380066977	-0.059899108869867
22.558000000000	-0.69766126108805	-0.056104177115693
22.564000000000	-0.69809779322883	-0.052307195775689
22.570000000000	-0.69851339508077	-0.048508281016653
22.576000000000	-0.69890806527614	-0.044707548911677
22.582000000000	-0.69928180308918	-0.040905115436805
22.588000000000	-0.69963460843455	-0.037101096467710
22.594000000000	-0.69996648186562	-0.033295607776387
22.600000000000	-0.70027742457287	-0.029488765027867
22.606000000000	-0.70056743838219	-0.025680683776951
22.612000000000	-0.70083652575324	-0.021871479464963
22.618000000000	-0.70108468977776	-0.018061267416516
22.624000000000	-0.70131193417784	-0.014250162836314
22.630000000000	-0.70151826330427	-0.010438280805952
22.636000000000	-0.70170353464977	-0.0066402814104926
22.642000000000	-0.70186805907493	-0.0028417412749388
22.648000000000	-0.70201184283383	0.00095722620203367
22.654000000000	-0.70213489279285	0.0047565077568650
22.660000000000	-0.70223721642893	0.0085559902641457
22.666000000000	-0.70231882182780	0.012355560739626
22.672000000000	-0.70237971768222	0.016155106343217
22.678000000000	-0.70241991329022	0.019954514381961
22.684000000000	-0.70243941855330	0.023753672312999
22.690000000000	-0.70243824397464	0.027552467746503
22.696000000000	-0.70241640065732	0.031350788448606
22.702000000000	-0.70237390030250	0.035148522344302
22.708000000000	-0.70231075520760	0.038945557520333
22.714000000000	-0.70222697826448	0.042741782228065
22.720000000000	-0.70212258295758	0.046537084886326
22.726000000000	-0.70199758336213	0.050331354084251
22.732000000000	-0.70185199414225	0.054124478584093
22.738000000000	-0.70168583054914	0.057916347324020
22.744000000000	-0.70149910841917	0.061706849420898
22.750000000000	-0.70129184417202	0.065495874173053
22.756000000000	-0.70106405480881	0.069283311063017
22.762000000000	-0.70081575791024	0.073069049760257
22.768000000000	-0.70054697163460	0.076852980123884
22.774000000000	-0.70025771471600	0.080634992205347
22.780000000000	-0.69994800646234	0.084414976251117
22.786000000000	-0.69961786675347	0.088192822705336
22.792000000000	-0.69926731603925	0.091968422212468
22.798000000000	-0.69889637533760	0.095741665619923
22.804000000000	-0.69850506623260	0.099512443980663
22.810000000000	-0.69809341087252	0.10328064855581
22.816000000000	-0.69766143196788	0.10704617081719
22.822000000000	-0.69720915278950	0.11080890244992
22.828000000000	-0.69673659716653	0.11456873535497
22.834000000000	-0.69624378948453	0.11832556165162
22.840000000000	-0.69573075468340	0.12207927368005
22.846000000000	-0.69519751825553	0.12582976400378
22.852000000000	-0.69464410624370	0.12957692541217
22.858000000000	-0.69407054523916	0.13332065092289
22.864000000000	-0.69347686237964	0.13706083378433
22.870000000000	-0.69286308534731	0.14079736747809
22.876000000000	-0.69222924236679	0.14453014572133
22.882000000000	-0.69157536220317	0.14825906246922
22.888000000000	-0.69090147415996	0.15198401191729
22.894000000000	-0.69020760807709	0.15570488850381
22.900000000000	-0.68949379432888	0.15942158691215
22.906000000000	-0.68876006382201	0.16313400207309
22.912000000000	-0.68800644799349	0.16684202916717
22.918000000000	-0.68723297880863	0.17054556362699
22.924000000000	-0.68643968875899	0.17424450113950
22.930000000000	-0.68562661086032	0.17793873764825
22.936000000000	-0.68479377865052	0.18162816935568
22.942000000000	-0.68394122618761	0.18531269272537
22.948000000000	-0.68306898804763	0.18899220448425
22.954000000000	-0.68217709932261	0.19266660162481
22.960000000000	-0.68126559561846	0.19633578140735
22.966000000000	-0.68033451305296	0.19999964136210
22.972000000000	-0.67938388825362	0.20365807929144
22.978000000000	-0.67841375835565	0.20731099327204
22.984000000000	-0.67742416099986	0.21095828165699
22.990000000000	-0.67641513433056	0.21459984307796
22.996000000000	-0.67538671699350	0.21823557644731
23.002000000000	-0.67433894813375	0.22186538096015
23.008000000000	-0.67327186739361	0.22548915609647
23.014000000000	-0.67218551491051	0.22910680162320
23.020000000000	-0.67107993131493	0.23271821759625
23.026000000000	-0.66995515772824	0.23632330436259
23.032000000000	-0.66881123576064	0.23992196256225
23.038000000000	-0.66764820750903	0.24351409313034
23.044000000000	-0.66646611555488	0.24709959729908
23.050000000000	-0.66526500296213	0.25067837659973
23.056000000000	-0.66404491327505	0.25425033286466
23.062000000000	-0.66280589051613	0.25781536822921
23.068000000000	-0.66154797918396	0.26137338513371
23.074000000000	-0.66027122425104	0.26492428632539
23.080000000000	-0.65897567116173	0.26846797486029
23.086000000000	-0.65766136583006	0.27200435410522
23.092000000000	-0.65632835463759	0.27553332773957
23.098000000000	-0.65497668443130	0.27905479975729
23.104000000000	-0.65360640252140	0.28256867446869
23.110000000000	-0.65221755667923	0.28607485650231
23.116000000000	-0.65081019513507	0.28957325080680
23.122000000000	-0.64938436657600	0.29306376265270
23.128000000000	-0.64794012014378	0.29654629763431
23.134000000000	-0.64647750543262	0.30002076167147
23.140000000000	-0.64499657248708	0.30348706101132
23.146000000000	-0.64349737179988	0.30694510223015
23.152000000000	-0.64197995430976	0.31039479223512
23.158000000000	-0.64044437139927	0.31383603826604
23.164000000000	-0.63889067489264	0.31726874789709
23.170000000000	-0.63731891705359	0.32069282903858
23.176000000000	-0.63572915058316	0.32410818993862
23.182000000000	-0.63412142861754	0.32751473918491
23.188000000000	-0.63249580472587	0.33091238570635
23.194000000000	-0.63085233290809	0.33430103877476
23.200000000000	-0.62919106759274	0.33768060800657
23.206000000000	-0.62751206363476	0.34105100336444
23.212000000000	-0.62581537631334	0.34441213515893
23.218000000000	-0.62410106132970	0.34776391405012
23.224000000000	-0.62236917480492	0.35110625104925
23.230000000000	-0.62061977327774	0.35443905752033
23.236000000000	-0.61885291370235	0.35776224518172
23.242000000000	-0.61706865344622	0.36107572610775
23.248000000000	-0.61526705028788	0.36437941273024
23.254000000000	-0.61344816241473	0.36767321784015
23.260000000000	-0.61161204842084	0.37095705458905
23.266000000000	-0.60975876730475	0.37423083649071
23.272000000000	-0.60788837846722	0.37749447742263
23.278000000000	-0.60600094170910	0.38074789162754
23.284000000000	-0.60409651722906	0.38399099371490
23.290000000000	-0.60217516562139	0.38722369866242
23.296000000000	-0.60023694787381	0.39044592181755
23.302000000000	-0.59828192536523	0.39365757889894
23.308000000000	-0.59631015986355	0.39685858599788
23.314000000000	-0.59432171352343	0.40004885957981
23.320000000000	-0.59231664888406	0.40322831648570
23.326000000000	-0.59029502886698	0.40639687393351
23.332000000000	-0.58825691677381	0.40955444951963
23.338000000000	-0.58620237628406	0.41270096122024
23.344000000000	-0.58413147145287	0.41583632739274
23.350000000000	-0.58204426670883	0.41896046677713
23.356000000000	-0.57994082685168	0.42207329849736
23.362000000000	-0.57782121705016	0.42517474206276
23.368000000000	-0.57568550283970	0.42826471736931
23.374000000000	-0.57353375012025	0.43134314470106
23.380000000000	-0.57136602515401	0.43440994473138
23.386000000000	-0.56918239456318	0.43746503852438
23.392000000000	-0.56698292532776	0.44050834753613
23.398000000000	-0.56476768478328	0.44353979361603
23.404000000000	-0.56253674061857	0.44655929900805
23.410000000000	-0.56029016087350	0.44956678635203
23.416000000000	-0.55802801393677	0.45256217868497
23.422000000000	-0.55575036854363	0.45554539944224
23.428000000000	-0.55345729377362	0.45851637245888
23.434000000000	-0.55114885904839	0.46147502197080
23.440000000000	-0.54882513412935	0.46442127261601
23.446000000000	-0.54648618911551	0.46735504943589
23.452000000000	-0.54413209444117	0.47027627787629
23.458000000000	-0.54176292087368	0.47318488378886
23.464000000000	-0.53937873951117	0.47608079343211
23.470000000000	-0.53697962178033	0.47896393347268
23.476000000000	-0.53456563943411	0.48183423098646
23.482000000000	-0.53213686454948	0.48469161345973
23.488000000000	-0.52969336952515	0.48753600879037
23.494000000000	-0.52723522707934	0.49036734528892
23.500000000000	-0.52476251024746	0.49318555167975
23.506000000000	-0.52227529237991	0.49599055710217
23.512000000000	-0.51977364713976	0.49878229111153
23.518000000000	-0.51725764850050	0.50156068368031
23.524000000000	-0.51472737074376	0.50432566519919
23.530000000000	-0.51218288845707	0.50707716647816
23.536000000000	-0.50962427653153	0.50981511874757
23.542000000000	-0.50705161015960	0.51253945365917
23.548000000000	-0.50446496483276	0.51525010328718
23.554000000000	-0.50186441633930	0.51794700012928
23.560000000000	-0.49925004076197	0.52063007710769
23.566000000000	-0.49662191447576	0.52329926757016
23.572000000000	-0.49398011414559	0.52595450529095
23.578000000000	-0.49132471672402	0.52859572447186
23.584000000000	-0.48865579944899	0.53122285974321
23.590000000000	-0.48597343984152	0.53383584616479
23.596000000000	-0.48327771570343	0.53643461922685
23.602000000000	-0.48056870511504	0.53901911485104
23.608000000000	-0.47784648643290	0.54158926939137
23.614000000000	-0.47511113828749	0.54414501963513
23.620000000000	-0.47236273958092	0.54668630280381
23.626000000000	-0.46960136948466	0.54921305655405
23.632000000000	-0.46682710743722	0.55172521897850
23.638000000000	-0.46404003314188	0.55422272860674
23.644000000000	-0.46124022656438	0.55670552440617
23.650000000000	-0.45842776793060	0.55917354578288
23.656000000000	-0.45560273772433	0.56162673258250
23.662000000000	-0.45276521668489	0.56406502509108
23.668000000000	-0.44991528580488	0.56648836403593
23.674000000000	-0.44705302632787	0.56889669058645
23.680000000000	-0.44417851974609	0.57128994635495
23.686000000000	-0.44129184779811	0.57366807339748
23.692000000000	-0.43839309246657	0.57603101421464
23.698000000000	-0.43548233597585	0.57837871175238
23.704000000000	-0.43255966078977	0.58071110940276
23.710000000000	-0.42962514960927	0.58302815100474
23.716000000000	-0.42667888537012	0.58532978084497
23.722000000000	-0.42372095124059	0.58761594365852
23.728000000000	-0.42075143061916	0.58988658462965
23.734000000000	-0.41777040713219	0.59214164939253
23.740000000000	-0.41477796463161	0.59438108403196
23.746000000000	-0.41177418719260	0.59660483508414
23.752000000000	-0.40877179909381	0.59880420994852
23.758000000000	-0.40575833735177	0.60098792314010
23.764000000000	-0.40273388569845	0.60315592325310
23.770000000000	-0.39969852807547	0.60530815932873
23.776000000000	-0.39665234863183	0.60744458085586
23.782000000000	-0.39359543172165	0.60956513777166
23.788000000000	-0.39052786190184	0.61166978046222
23.794000000000	-0.38744972392992	0.61375845976317
23.800000000000	-0.38436110276167	0.61583112696029
23.806000000000	-0.38126208354886	0.61788773379011
23.812000000000	-0.37815275163702	0.61992823244050
23.818000000000	-0.37503319256312	0.62195257555123
23.824000000000	-0.37190349205330	0.62396071621460
23.830000000000	-0.36876373602061	0.62595260797591
23.836000000000	-0.36561401056271	0.62792820483411
23.842000000000	-0.36245440195959	0.62988746124225
23.848000000000	-0.35928499667130	0.63183033210809
23.854000000000	-0.35610588133567	0.63375677279458
23.860000000000	-0.35291714276602	0.63566673912036
23.866000000000	-0.34971886794889	0.63756018736030
23.872000000000	-0.34651114404172	0.63943707424599
23.878000000000	-0.34329405837062	0.64129735696619
23.884000000000	-0.34006769842805	0.64314099316734
23.890000000000	-0.33683215187054	0.64496794095400
23.896000000000	-0.33358750651641	0.64677815888933
23.902000000000	-0.33033385034349	0.64857160599550
23.908000000000	-0.32707127148682	0.65034824175417
23.914000000000	-0.32379985823636	0.65210802610686
23.920000000000	-0.32051969903474	0.65385091945544
23.926000000000	-0.31723088247493	0.65557688266246
23.932000000000	-0.31393349729796	0.65728587705160
23.938000000000	-0.31062763239064	0.65897786440803
23.944000000000	-0.30731337678330	0.66065280697878
23.950000000000	-0.30399081964742	0.66231066747316
23.956000000000	-0.30066005029345	0.66395140906304
23.962000000000	-0.29732115816842	0.66557499538327
23.968000000000	-0.29397423285373	0.66718139053196
23.974000000000	-0.29061936406278	0.66877055907084
23.980000000000	-0.28725664163877	0.67034246602559
23.986000000000	-0.28388615555234	0.67189707688610
23.992000000000	-0.28050799589930	0.67343435760683
23.998000000000	-0.27712225289837	0.67495427460705
24.004000000000	-0.27372901688884	0.67645679477113
24.010000000000	-0.27032837832831	0.67794188544884
24.016000000000	-0.26692042779039	0.67940951445556
24.022000000000	-0.26350525596243	0.68085965007257
24.028000000000	-0.26008295364320	0.68229226104727
24.034000000000	-0.25665361174061	0.68370731659341
24.040000000000	-0.25321732126943	0.68510478639132
24.046000000000	-0.24977417334898	0.68648464058810
24.052000000000	-0.24632425920088	0.68784684979785
24.058000000000	-0.24286767014671	0.68919138510183
24.064000000000	-0.23940449760576	0.69051821804864
24.070000000000	-0.23593483309271	0.69182732065444
24.076000000000	-0.23245876821537	0.69311866540302
24.082000000000	-0.22897639467237	0.69439222524605
24.088000000000	-0.22548780425090	0.69564797360313
24.094000000000	-0.22199308882439	0.69688588436200
24.100000000000	-0.21849234035023	0.69810593187858
24.106000000000	-0.21498565086751	0.69930809097716
24.112000000000	-0.21147311249469	0.70049233695042
24.118000000000	-0.20795481742737	0.70165864555960
24.124000000000	-0.20443085793594	0.70280699303451
24.130000000000	-0.20090132636336	0.70393735607364
24.136000000000	-0.19736631512283	0.70504971184420
24.142000000000	-0.19382591669554	0.70614403798220
24.148000000000	-0.19028022362834	0.70722031259244
24.154000000000	-0.18672932853153	0.70827851424858
24.160000000000	-0.18317332407652	0.70931862199314
24.166000000000	-0.17961230299356	0.71034061533753
24.172000000000	-0.17604635806949	0.71134447426201
24.178000000000	-0.17247558214545	0.71233017921571
24.184000000000	-0.16890006811457	0.71329771111660
24.190000000000	-0.16531990891975	0.71424705135147
24.196000000000	-0.16173519755134	0.71517818177587
24.202000000000	-0.15814602704490	0.71609108471405
24.208000000000	-0.15455249047888	0.71698574295893
24.214000000000	-0.15095468097241	0.71786213977201
24.220000000000	-0.14735269168299	0.71872025888328
24.226000000000	-0.14374661580423	0.71956008449113
24.232000000000	-0.14013654656358	0.72038160126228
24.238000000000	-0.13652257722008	0.72118479433162
24.244000000000	-0.13290480106207	0.72196964930209
24.250000000000	-0.12928331140494	0.72273615224459
24.256000000000	-0.12565820158887	0.72348428969780
