#Parameters = {Epsilon=3; a=8.636; b=4.318; d_new=2; d_odj=74.4; h=1; l=26; l_old=26; tg_delta=0.01}
#"Frequency / GHz"	"S1,2 [Re]"	"S1,2 [Im]"
#-----------------------------------------
22.000000000000	-0.27276756074060	-0.62949069580124
22.006000000000	-0.27611215405643	-0.62820432200424
22.012000000000	-0.27944957379238	-0.62690049596255
22.018000000000	-0.28277972911568	-0.62557926399985
22.024000000000	-0.28610252954908	-0.62424067290765
22.030000000000	-0.28941788497297	-0.62288476994211
22.036000000000	-0.29272570562746	-0.62151160282096
22.042000000000	-0.29602590211441	-0.62012121972030
22.048000000000	-0.29931838539945	-0.61871366927150
22.054000000000	-0.30260306681397	-0.61728900055804
22.060000000000	-0.30587985805704	-0.61584726311238
22.066000000000	-0.30914867119740	-0.61438850691277
22.072000000000	-0.31240941867529	-0.61291278238016
22.078000000000	-0.31566201330436	-0.61142014037500
22.084000000000	-0.31890636827349	-0.60991063219412
22.090000000000	-0.32214239714865	-0.60838430956757
22.096000000000	-0.32537001387459	-0.60684122465545
22.102000000000	-0.32858913277671	-0.60528143004479
22.108000000000	-0.33179966856269	-0.60370497874639
22.114000000000	-0.33500153632426	-0.60211192419166
22.120000000000	-0.33819465153884	-0.60050232022946
22.126000000000	-0.34137893007120	-0.59887622112299
22.132000000000	-0.34455428817506	-0.59723368154659
22.138000000000	-0.34772064249472	-0.59557475658265
22.144000000000	-0.35087791006660	-0.59389950171843
22.150000000000	-0.35402600832077	-0.59220797284290
22.156000000000	-0.35716485508250	-0.59050022624364
22.162000000000	-0.36029436857370	-0.58877631860369
22.168000000000	-0.36341446741442	-0.58703630699840
22.174000000000	-0.36652507062429	-0.58528024889230
22.180000000000	-0.36962609762386	-0.58350820213598
22.186000000000	-0.37271746823609	-0.58172022496294
22.192000000000	-0.37579910268761	-0.57991637598651
22.198000000000	-0.37887092161012	-0.57809671419666
22.204000000000	-0.38193284604167	-0.57626129895696
22.210000000000	-0.38498479742794	-0.57441019000140
22.216000000000	-0.38802669762352	-0.57254344743131
22.222000000000	-0.39105846889313	-0.57066113171226
22.228000000000	-0.39408003391280	-0.56876330367096
22.234000000000	-0.39709131577114	-0.56685002449213
22.240000000000	-0.40009223797042	-0.56492135571545
22.246000000000	-0.40308272442772	-0.56297735923244
22.252000000000	-0.40606269947610	-0.56101809728339
22.258000000000	-0.40903208786564	-0.55904363245431
22.264000000000	-0.41199081476451	-0.55705402767379
22.270000000000	-0.41493880576003	-0.55504934621000
22.276000000000	-0.41787598685971	-0.55302965166761
22.282000000000	-0.42080228449221	-0.55099500798471
22.288000000000	-0.42371762550834	-0.54894547942978
22.294000000000	-0.42662193718200	-0.54688113059866
22.300000000000	-0.42951514721115	-0.54480202641148
22.306000000000	-0.43239718371868	-0.54270823210966
22.312000000000	-0.43526797525331	-0.54059981325286
22.318000000000	-0.43812745079047	-0.53847683571599
22.324000000000	-0.44097553973313	-0.53633936568615
22.330000000000	-0.44381217191263	-0.53418746965971
22.336000000000	-0.44663727758950	-0.53202121443920
22.342000000000	-0.44945078745423	-0.52984066713042
22.348000000000	-0.45225263262801	-0.52764589513942
22.354000000000	-0.45504274466353	-0.52543696616947
22.360000000000	-0.45782105554563	-0.52321394821821
22.366000000000	-0.46058749769207	-0.52097690957455
22.372000000000	-0.46334200395417	-0.51872591881584
22.378000000000	-0.46608450761746	-0.51646104480484
22.384000000000	-0.46881494240239	-0.51418235668682
22.390000000000	-0.47153324246487	-0.51188992388661
22.396000000000	-0.47423934239693	-0.50958381610570
22.402000000000	-0.47693317722730	-0.50726410331930
22.408000000000	-0.47961468242195	-0.50493085577346
22.414000000000	-0.48228379388465	-0.50258414398215
22.420000000000	-0.48494044795752	-0.50022403872437
22.426000000000	-0.48758458142150	-0.49785061104131
22.432000000000	-0.49021613149690	-0.49546393223339
22.438000000000	-0.49283503584382	-0.49306407385750
22.444000000000	-0.49544123256263	-0.49065110772407
22.450000000000	-0.49803466019442	-0.48822510589424
22.456000000000	-0.50061525772141	-0.48578614067704
22.462000000000	-0.50318296456736	-0.48333428462655
22.468000000000	-0.50573772059795	-0.48086961053907
22.474000000000	-0.50827946612117	-0.47839219145033
22.480000000000	-0.51080814188766	-0.47590210063264
22.486000000000	-0.51332368909106	-0.47339941159216
22.492000000000	-0.51582604936830	-0.47088419806609
22.498000000000	-0.51831516479997	-0.46835653401985
22.504000000000	-0.52079097791055	-0.46581649364439
22.510000000000	-0.52325343166871	-0.46326415135339
22.516000000000	-0.52570246948756	-0.46069958178051
22.522000000000	-0.52813803522490	-0.45812285977665
22.528000000000	-0.53056007318348	-0.45553406040726
22.534000000000	-0.53296852811112	-0.45293325894957
22.540000000000	-0.53536334520103	-0.45032053088990
22.546000000000	-0.53774447009189	-0.44769595192097
22.552000000000	-0.54011184886808	-0.44505959793921
22.558000000000	-0.54246542805981	-0.44241154504204
22.564000000000	-0.54480515464327	-0.43975186952526
22.570000000000	-0.54713097604075	-0.43708064788033
22.576000000000	-0.54944284012075	-0.43439795679176
22.582000000000	-0.55174069519808	-0.43170387313443
22.588000000000	-0.55402449003397	-0.42899847397099
22.594000000000	-0.55629417383609	-0.42628183654922
22.600000000000	-0.55854969625864	-0.42355403829943
22.606000000000	-0.56079100740241	-0.42081515683181
22.612000000000	-0.56301805781477	-0.41806526993392
22.618000000000	-0.56523079848972	-0.41530445556802
22.624000000000	-0.56742918086789	-0.41253279186853
22.630000000000	-0.56961315683652	-0.40975035713951
22.636000000000	-0.57178267872947	-0.40695722985200
22.642000000000	-0.57393769932715	-0.40415348864159
22.648000000000	-0.57607817185652	-0.40133921230581
22.654000000000	-0.57820404999100	-0.39851447980162
22.660000000000	-0.58031528785040	-0.39567937024290
22.666000000000	-0.58241184000089	-0.39283396289795
22.672000000000	-0.58449366145484	-0.38997833718701
22.678000000000	-0.58656070767080	-0.38711257267971
22.684000000000	-0.58861293455330	-0.38423674909265
22.690000000000	-0.59065029845279	-0.38135094628695
22.696000000000	-0.59267275616548	-0.37845524426571
22.702000000000	-0.59468026493320	-0.37554972317166
22.708000000000	-0.59667278244323	-0.37263446328465
22.714000000000	-0.59865026682816	-0.36970954501925
22.720000000000	-0.60061267666568	-0.36677504892236
22.726000000000	-0.60255997097844	-0.36383105567075
22.732000000000	-0.60449210923379	-0.36087764606868
22.738000000000	-0.60640905134362	-0.35791490104555
22.744000000000	-0.60831075766411	-0.35494290165346
22.750000000000	-0.61019718899554	-0.35196172906488
22.756000000000	-0.61206830658202	-0.34897146457028
22.762000000000	-0.61392407211125	-0.34597218957579
22.768000000000	-0.61576444771429	-0.34296398560084
22.774000000000	-0.61758939596524	-0.33994693427583
22.780000000000	-0.61939887988101	-0.33692111733986
22.786000000000	-0.62119286292105	-0.33388661663833
22.792000000000	-0.62297130898700	-0.33084351412071
22.798000000000	-0.62473418242242	-0.32779189183824
22.804000000000	-0.62648144801251	-0.32473183194160
22.810000000000	-0.62821307098373	-0.32166341667869
22.816000000000	-0.62992901700351	-0.31858672839233
22.822000000000	-0.63162925217993	-0.31550184951803
22.828000000000	-0.63331374306134	-0.31240886258173
22.834000000000	-0.63498245663600	-0.30930785019758
22.840000000000	-0.63663536033178	-0.30619889506569
22.846000000000	-0.63827242201574	-0.30308207996993
22.852000000000	-0.63989360999376	-0.29995748777572
22.858000000000	-0.64149889301017	-0.29682520142781
22.864000000000	-0.64308824024736	-0.29368530394815
22.870000000000	-0.64466162132536	-0.29053787843362
22.876000000000	-0.64621900630147	-0.28738300805395
22.882000000000	-0.64776036566981	-0.28422077604950
22.888000000000	-0.64928567036091	-0.28105126572910
22.894000000000	-0.65079489174130	-0.27787456046797
22.900000000000	-0.65228800161304	-0.27469074370551
22.906000000000	-0.65376497221334	-0.27149989894321
22.912000000000	-0.65522577621402	-0.26830210974255
22.918000000000	-0.65667038672114	-0.26509745972286
22.924000000000	-0.65809877727449	-0.26188603255922
22.930000000000	-0.65951092184713	-0.25866791198039
22.936000000000	-0.66090679484492	-0.25544318176671
22.942000000000	-0.66228637110605	-0.25221192574805
22.948000000000	-0.66364962590051	-0.24897422780171
22.954000000000	-0.66499653492965	-0.24573017185040
22.960000000000	-0.66632707432564	-0.24247984186016
22.966000000000	-0.66764122065098	-0.23922332183834
22.972000000000	-0.66893895089797	-0.23596069583156
22.978000000000	-0.67022024248821	-0.23269204792370
22.984000000000	-0.67148507327209	-0.22941746223388
22.990000000000	-0.67273342152822	-0.22613702291444
22.996000000000	-0.67396526596289	-0.22285081414896
23.002000000000	-0.67518058570960	-0.21955892015027
23.008000000000	-0.67637936032843	-0.21626142515844
23.014000000000	-0.67756156980552	-0.21295841343888
23.020000000000	-0.67872719455251	-0.20964996928027
23.026000000000	-0.67987621540601	-0.20633617699270
23.032000000000	-0.68100861362695	-0.20301712090566
23.038000000000	-0.68212437090008	-0.19969288536614
23.044000000000	-0.68322346933337	-0.19636355473664
23.050000000000	-0.68430589145740	-0.19302921339332
23.056000000000	-0.68537162022480	-0.18968994572403
23.062000000000	-0.68642063900964	-0.18634583612640
23.068000000000	-0.68745293160684	-0.18299696900599
23.074000000000	-0.68846848223155	-0.17964342877433
23.080000000000	-0.68946727551855	-0.17628529984706
23.086000000000	-0.69044929652166	-0.17292266664209
23.092000000000	-0.69141453071305	-0.16955561357765
23.098000000000	-0.69236296398271	-0.16618422507049
23.104000000000	-0.69329458263774	-0.16280858553401
23.110000000000	-0.69420937340176	-0.15942877937640
23.116000000000	-0.69510732341427	-0.15604489099879
23.122000000000	-0.69598842023000	-0.15265700479344
23.128000000000	-0.69685265181825	-0.14926520514191
23.134000000000	-0.69770000656228	-0.14586957641321
23.140000000000	-0.69853047325860	-0.14247020296204
23.146000000000	-0.69934404111636	-0.13906716912692
23.152000000000	-0.70014069975665	-0.13566055922844
23.158000000000	-0.70092043921186	-0.13225045756747
23.164000000000	-0.70168324992498	-0.12883694842335
23.170000000000	-0.70242912274896	-0.12542011605210
23.176000000000	-0.70315804894600	-0.12200004468472
23.182000000000	-0.70387002018685	-0.11857681852532
23.188000000000	-0.70456502855018	-0.11515052174948
23.194000000000	-0.70524306652183	-0.11172123850240
23.200000000000	-0.70590412699416	-0.10828905289722
23.206000000000	-0.70654820326531	-0.10485404901325
23.212000000000	-0.70717528903850	-0.10141631089427
23.218000000000	-0.70778537842136	-0.097975922546763
23.224000000000	-0.70837846592518	-0.094532967938244
23.230000000000	-0.70895454646421	-0.091087530995520
23.236000000000	-0.70951361535493	-0.087639695602999
23.242000000000	-0.71005566831536	-0.084189545600986
23.248000000000	-0.71058070146428	-0.080737164783995
23.254000000000	-0.71108871132054	-0.077282636899065
23.260000000000	-0.71157969480231	-0.073826045644079
23.266000000000	-0.71205364922635	-0.070367474666096
23.272000000000	-0.71251057230727	-0.066907007559674
23.278000000000	-0.71295046215677	-0.063444727865225
23.284000000000	-0.71337331728292	-0.059980719067350
23.290000000000	-0.71377913658936	-0.056515064593199
23.296000000000	-0.71416791937461	-0.053047847810821
23.302000000000	-0.71453966533125	-0.049579152027536
23.308000000000	-0.71489437454520	-0.046109060488300
23.314000000000	-0.71523204749494	-0.042637656374084
23.320000000000	-0.71555268505073	-0.039165022800255
23.326000000000	-0.71585628847385	-0.035691242814963
23.332000000000	-0.71614285941583	-0.032216399397538
23.338000000000	-0.71641239991766	-0.028740575456884
23.344000000000	-0.71666491240900	-0.025263853829890
23.350000000000	-0.71690039970742	-0.021786317279838
23.356000000000	-0.71711886501759	-0.018308048494819
23.362000000000	-0.71732031193048	-0.014829130086155
23.368000000000	-0.71750474442261	-0.011349644586833
23.374000000000	-0.71767216685518	-0.0078696744499238
23.380000000000	-0.71782258397334	-0.0043893020470377
23.386000000000	-0.71795600090533	-0.00090860966675913
23.392000000000	-0.71807242316171	0.0025723204869015
23.398000000000	-0.71817185663450	0.0060534062960526
23.404000000000	-0.71825430759644	0.0095345657304606
23.410000000000	-0.71831978270010	0.013015716849084
23.416000000000	-0.71836828897708	0.016496777801603
23.422000000000	-0.71839983383722	0.019977666829942
23.428000000000	-0.71841442506772	0.023458302269786
23.434000000000	-0.71841207083233	0.026938602552099
23.440000000000	-0.71839277967054	0.030418486204625
23.446000000000	-0.71835656049670	0.033897871853395
23.452000000000	-0.71830342259923	0.037376678224222
23.458000000000	-0.71823337563972	0.040854824144200
23.464000000000	-0.71814642965211	0.044332228543179
23.470000000000	-0.71804259504187	0.047808810455256
23.476000000000	-0.71792188258508	0.051284489020252
23.482000000000	-0.71778430342764	0.054759183485178
23.488000000000	-0.71762986908438	0.058232813205711
23.494000000000	-0.71745859143819	0.061705297647648
23.500000000000	-0.71727048273917	0.065176556388368
23.506000000000	-0.71706555560376	0.068646509118283
23.512000000000	-0.71684382301385	0.072115075642284
23.518000000000	-0.71660529831594	0.075582175881186
23.524000000000	-0.71634999522023	0.079047729873166
23.530000000000	-0.71607792779976	0.082511657775191
23.536000000000	-0.71578911048950	0.085973879864452
23.542000000000	-0.71548355808550	0.089434316539786
23.548000000000	-0.71516128574397	0.092892888323091
23.554000000000	-0.71482230898039	0.096349515860742
23.560000000000	-0.71446664366863	0.099804119925006
23.566000000000	-0.71409430604003	0.10325662141543
23.572000000000	-0.71370531268251	0.10670694136027
23.578000000000	-0.71329968053967	0.11015500091785
23.584000000000	-0.71287742690986	0.11360072137798
23.590000000000	-0.71243856944529	0.11704402416332
23.596000000000	-0.71198312615108	0.12048483083078
23.602000000000	-0.71151111538440	0.12392306307291
23.608000000000	-0.71102255585349	0.12735864271921
23.614000000000	-0.71051746661677	0.13079149173758
23.620000000000	-0.70999586708190	0.13422153223562
23.626000000000	-0.70945777700484	0.13764868646201
23.632000000000	-0.70890321648895	0.14107287680787
23.638000000000	-0.70833220598399	0.14449402580810
23.644000000000	-0.70774476628527	0.14791205614274
23.650000000000	-0.70714091853262	0.15132689063828
23.656000000000	-0.70652068420947	0.15473845226904
23.662000000000	-0.70588408514194	0.15814666415843
23.668000000000	-0.70523114349784	0.16155144958039
23.674000000000	-0.70456188178573	0.16495273196057
23.680000000000	-0.70387632285394	0.16835043487779
23.686000000000	-0.70317448988966	0.17174448206525
23.692000000000	-0.70245640641792	0.17513479741187
23.698000000000	-0.70172209630065	0.17852130496363
23.704000000000	-0.70097158373569	0.18190392892483
23.710000000000	-0.70020489325583	0.18528259365937
23.716000000000	-0.69942204972782	0.18865722369211
23.722000000000	-0.69862307835140	0.19202774371008
23.728000000000	-0.69780800465831	0.19539407856383
23.734000000000	-0.69697685451129	0.19875615326866
23.740000000000	-0.69612965410311	0.20211389300590
23.746000000000	-0.69526642995554	0.20546722312421
23.752000000000	-0.69438720891839	0.20881606914081
23.758000000000	-0.69349201816851	0.21216035674277
23.764000000000	-0.69258088520873	0.21550001178825
23.770000000000	-0.69165383786693	0.21883496030773
23.776000000000	-0.69071090429495	0.22216512850533
23.782000000000	-0.68975211296766	0.22549044275996
23.788000000000	-0.68877749268185	0.22881082962664
23.794000000000	-0.68778707255529	0.23212621583766
23.800000000000	-0.68678088202567	0.23543652830390
23.806000000000	-0.68575895084954	0.23874169411595
23.812000000000	-0.68472130910135	0.24204164054544
23.818000000000	-0.68366798717237	0.24533629504617
23.824000000000	-0.68259901576965	0.24862558525537
23.830000000000	-0.68151442591500	0.25190943899488
23.836000000000	-0.68041424894392	0.25518778427239
23.842000000000	-0.67929851650459	0.25846054928262
23.848000000000	-0.67816726055678	0.26172766240849
23.854000000000	-0.67702051337083	0.26498905222236
23.860000000000	-0.67585830752655	0.26824464748717
23.866000000000	-0.67468067591220	0.27149437715767
23.872000000000	-0.67348765172342	0.27473817038154
23.878000000000	-0.67227926846213	0.27797595650061
23.884000000000	-0.67105555993549	0.28120766505202
23.890000000000	-0.66981656025482	0.28443322576937
23.896000000000	-0.66856230383451	0.28765256858389
23.902000000000	-0.66729282539096	0.29086562362557
23.908000000000	-0.66600815994146	0.29407232122437
23.914000000000	-0.66470834280316	0.29727259191131
23.920000000000	-0.66339340959191	0.30046636641962
23.926000000000	-0.66206339622122	0.30365357568592
23.932000000000	-0.66071833890112	0.30683415085129
23.938000000000	-0.65935827413710	0.31000802326246
23.944000000000	-0.65798323872896	0.31317512447288
23.950000000000	-0.65659326976976	0.31633538624388
23.956000000000	-0.65518840464464	0.31948874054577
23.962000000000	-0.65376868102976	0.32263511955893
23.968000000000	-0.65233413689115	0.32577445567495
23.974000000000	-0.65088481048359	0.32890668149772
23.980000000000	-0.64942074034952	0.33203172984452
23.986000000000	-0.64794196531785	0.33514953374711
23.992000000000	-0.64644852450289	0.33826002645283
23.998000000000	-0.64494045730317	0.34136314142566
24.004000000000	-0.64341780340033	0.34445881234733
24.010000000000	-0.64188060275794	0.34754697311837
24.016000000000	-0.64032889562042	0.35062755785918
24.022000000000	-0.63876272251179	0.35370050091112
24.028000000000	-0.63718212423465	0.35676573683752
24.034000000000	-0.63558714186888	0.35982320042478
24.040000000000	-0.63397781677061	0.36287282668341
24.046000000000	-0.63235419057095	0.36591455084906
24.052000000000	-0.63071630517492	0.36894830838356
24.058000000000	-0.62906420276019	0.37197403497598
24.064000000000	-0.62739792577597	0.37499166654364
24.070000000000	-0.62571751694182	0.37800113923313
24.076000000000	-0.62402301924645	0.38100238942138
24.082000000000	-0.62231447594655	0.38399535371659
24.088000000000	-0.62059193056562	0.38697996895932
24.094000000000	-0.61885542689274	0.38995617222346
24.100000000000	-0.61710500898142	0.39292390081724
24.106000000000	-0.61534072114837	0.39588309228424
24.112000000000	-0.61356260797233	0.39883368440433
24.118000000000	-0.61177071429284	0.40177561519472
24.124000000000	-0.60996508520904	0.40470882291093
24.130000000000	-0.60814576607846	0.40763324604771
24.136000000000	-0.60631280251583	0.41054882334010
24.142000000000	-0.60446624039182	0.41345549376433
24.148000000000	-0.60260612583186	0.41635319653879
24.154000000000	-0.60073250521489	0.41924187112503
24.160000000000	-0.59884542517215	0.42212145722865
24.166000000000	-0.59694493258593	0.42499189480031
24.172000000000	-0.59503107458836	0.42785312403662
24.178000000000	-0.59310389856016	0.43070508538108
24.184000000000	-0.59116345212941	0.43354771952506
24.190000000000	-0.58920978317029	0.43638096740868
24.196000000000	-0.58724293980185	0.43920477022173
24.202000000000	-0.58526297038674	0.44201906940461
24.208000000000	-0.58326992352999	0.44482380664922
24.214000000000	-0.58126384807772	0.44761892389989
24.220000000000	-0.57924479311591	0.45040436335424
24.226000000000	-0.57721280796910	0.45318006746410
24.232000000000	-0.57516794219918	0.45594597893642
24.238000000000	-0.57311024560405	0.45870204073410
24.244000000000	-0.57103976821641	0.46144819607690
