#Parameters = {Epsilon=3; a=8.636; b=4.318; d_new=2; d_odj=74.4; h=1; l=26; l_old=26; tg_delta=0.01}
#"Frequency / GHz"	"S2,1 [Re]"	"S2,1 [Im]"
#-----------------------------------------
22.000000000000	-0.56799151329382	-0.38462306878211
22.006000000000	-0.57027396811490	-0.38151480121942
22.012000000000	-0.57253864332245	-0.37839390632620
22.018000000000	-0.57478547248780	-0.37526049144379
22.024000000000	-0.57701438989003	-0.37211466422311
22.030000000000	-0.57922533051680	-0.36895653261956
22.036000000000	-0.58141823006501	-0.36578620488791
22.042000000000	-0.58359302494149	-0.36260378957720
22.048000000000	-0.58574965226361	-0.35940939552567
22.054000000000	-0.58788804985990	-0.35620313185565
22.060000000000	-0.59000815627058	-0.35298510796855
22.066000000000	-0.59210991074810	-0.34975543353976
22.072000000000	-0.59419325325760	-0.34651421851365
22.078000000000	-0.59625812447734	-0.34326157309853
22.084000000000	-0.59830446579916	-0.33999760776163
22.090000000000	-0.60033221932878	-0.33672243322412
22.096000000000	-0.60234132788617	-0.33343616045614
22.102000000000	-0.60433173500587	-0.33013890067177
22.108000000000	-0.60630338493720	-0.32683076532417
22.114000000000	-0.60825622264450	-0.32351186610053
22.120000000000	-0.61019019380736	-0.32018231491722
22.126000000000	-0.61210524482072	-0.31684222391487
22.132000000000	-0.61400132279503	-0.31349170545344
22.138000000000	-0.61587837555633	-0.31013087210734
22.144000000000	-0.61773635164628	-0.30675983666062
22.150000000000	-0.61957520032223	-0.30337871210205
22.156000000000	-0.62139487155716	-0.29998761162033
22.162000000000	-0.62319531603964	-0.29658664859922
22.168000000000	-0.62497648517379	-0.29317593661282
22.174000000000	-0.62673833107911	-0.28975558942071
22.180000000000	-0.62848080659041	-0.28632572096320
22.186000000000	-0.63020386525756	-0.28288644535660
22.192000000000	-0.63190746134534	-0.27943787688845
22.198000000000	-0.63359154983317	-0.27598013001283
22.204000000000	-0.63525608641487	-0.27251331934563
22.210000000000	-0.63690102749832	-0.26903755965989
22.216000000000	-0.63852633020520	-0.26555296588113
22.222000000000	-0.64013195237056	-0.26205965308267
22.228000000000	-0.64171785254247	-0.25855773648106
22.234000000000	-0.64328398998159	-0.25504733143138
22.240000000000	-0.64483032466075	-0.25152855342274
22.246000000000	-0.64635681726444	-0.24800151807363
22.252000000000	-0.64786342918832	-0.24446634112739
22.258000000000	-0.64935012253871	-0.24092313844768
22.264000000000	-0.65081686013198	-0.23737202601393
22.270000000000	-0.65226360549403	-0.23381311991685
22.276000000000	-0.65369032285961	-0.23024653635397
22.282000000000	-0.65509697717175	-0.22667239162514
22.288000000000	-0.65648353408102	-0.22309080212810
22.294000000000	-0.65784995994488	-0.21950188435405
22.300000000000	-0.65919622182697	-0.21590575488325
22.306000000000	-0.66052228749633	-0.21230253038060
22.312000000000	-0.66182812542664	-0.20869232759134
22.318000000000	-0.66311370479545	-0.20507526333662
22.324000000000	-0.66437899548332	-0.20145145450923
22.330000000000	-0.66562396807302	-0.19782101806927
22.336000000000	-0.66684859384860	-0.19418407103983
22.342000000000	-0.66805284479457	-0.19054073050278
22.348000000000	-0.66923669359491	-0.18689111359448
22.354000000000	-0.67040011363219	-0.18323533750155
22.360000000000	-0.67154307898657	-0.17957351945669
22.366000000000	-0.67266556443482	-0.17590577673445
22.372000000000	-0.67376754544932	-0.17223222664708
22.378000000000	-0.67484899819703	-0.16855298654039
22.384000000000	-0.67590989953841	-0.16486817378961
22.390000000000	-0.67695022702639	-0.16117790579526
22.396000000000	-0.67796995890522	-0.15748229997913
22.402000000000	-0.67896907410940	-0.15378147378012
22.408000000000	-0.67994755226252	-0.15007554465026
22.414000000000	-0.68090537367610	-0.14636463005066
22.420000000000	-0.68184251934839	-0.14264884744751
22.426000000000	-0.68275897096322	-0.13892831430809
22.432000000000	-0.68365471088873	-0.13520314809678
22.438000000000	-0.68452972217617	-0.13147346627117
22.444000000000	-0.68538398855861	-0.12773938627811
22.450000000000	-0.68621749444967	-0.12400102554976
22.456000000000	-0.68703022494225	-0.12025850149980
22.462000000000	-0.68782216580715	-0.11651193151949
22.468000000000	-0.68859330349183	-0.11276143297386
22.474000000000	-0.68934362511897	-0.10900712319790
22.480000000000	-0.69007311848514	-0.10524911949273
22.486000000000	-0.69078177205941	-0.10148753912186
22.492000000000	-0.69146957498196	-0.097722499307381
22.498000000000	-0.69213651706263	-0.093954117226277
22.504000000000	-0.69278258877948	-0.090182510006680
22.510000000000	-0.69340778127738	-0.086407794724184
22.516000000000	-0.69401208636647	-0.082630088398165
22.522000000000	-0.69459549652073	-0.078849507988123
22.528000000000	-0.69515800487646	-0.075066170390061
22.534000000000	-0.69569960523075	-0.071280192432856
22.540000000000	-0.69622029203993	-0.067491690874678
22.546000000000	-0.69672006041807	-0.063700782399411
22.552000000000	-0.69719890613538	-0.059907583613102
22.558000000000	-0.69765682561662	-0.056112211040434
22.564000000000	-0.69809381593954	-0.052314781121210
22.570000000000	-0.69850987483323	-0.048515410206866
22.576000000000	-0.69890500067656	-0.044714214557003
22.582000000000	-0.69927919249647	-0.040911310335935
22.588000000000	-0.69963244996635	-0.037106813609260
22.594000000000	-0.69996477340441	-0.033300840340455
22.600000000000	-0.70027616377196	-0.029493506387484
22.606000000000	-0.70056662267171	-0.025684927499435
22.612000000000	-0.70083615234612	-0.021875219313170
22.618000000000	-0.70108475567566	-0.018064497349991
22.624000000000	-0.70131243617704	-0.014252877012349
22.630000000000	-0.70151919800154	-0.010440473580542
22.636000000000	-0.70170489841365	-0.0066419473674488
22.642000000000	-0.70186984814267	-0.0028428751878105
22.648000000000	-0.70201405326086	0.00095662935893078
22.654000000000	-0.70213752045851	0.0047564528078774
22.660000000000	-0.70224025704210	0.0085564818318037
22.666000000000	-0.70232227093253	0.012356603244254
22.672000000000	-0.70238357066331	0.016156704002629
22.678000000000	-0.70242416537877	0.019956671211249
22.684000000000	-0.70244406483219	0.023756392124399
22.690000000000	-0.70244327938400	0.027555754149352
22.696000000000	-0.70242181999991	0.031354644849376
22.702000000000	-0.70237969824908	0.035152951946722
22.708000000000	-0.70231692630223	0.038950563325586
22.714000000000	-0.70223351692981	0.042747367035070
22.720000000000	-0.70212948350005	0.046543251292093
22.726000000000	-0.70200483997713	0.050338104484318
22.732000000000	-0.70185960091924	0.054131815173030
22.738000000000	-0.70169378147670	0.057924272096020
22.744000000000	-0.70150739739002	0.061715364170430
22.750000000000	-0.70130046498799	0.065504980495595
22.756000000000	-0.70107300118574	0.069293010355853
22.762000000000	-0.70082502348279	0.073079343223348
22.768000000000	-0.70055654996112	0.076863868760806
22.774000000000	-0.70026759928320	0.080646476824298
22.780000000000	-0.69995819069002	0.084427057465982
22.786000000000	-0.69962834399914	0.088205500936827
22.792000000000	-0.69927807960267	0.091981697689319
22.798000000000	-0.69890741846533	0.095755538380153
22.804000000000	-0.69851638212243	0.099526913872893
22.810000000000	-0.69810499267788	0.10329571524064
22.816000000000	-0.69767327280217	0.10706183376865
22.822000000000	-0.69722124573036	0.11082516095696
22.828000000000	-0.69674893526009	0.11458558852299
22.834000000000	-0.69625636574950	0.11834300840410
22.840000000000	-0.69574356211524	0.12209731276020
22.846000000000	-0.69521054983042	0.12584839397624
22.852000000000	-0.69465735492255	0.12959614466478
22.858000000000	-0.69408400397152	0.13334045766850
22.864000000000	-0.69349052410750	0.13708122606267
22.870000000000	-0.69287694300895	0.14081834315762
22.876000000000	-0.69224328890045	0.14455170250126
22.882000000000	-0.69158959055074	0.14828119788145
22.888000000000	-0.69091587727055	0.15200672332847
22.894000000000	-0.69022217891057	0.15572817311742
22.900000000000	-0.68950852585935	0.15944544177061
22.906000000000	-0.68877494904121	0.16315842405992
22.912000000000	-0.68802147991411	0.16686701500919
22.918000000000	-0.68724815046761	0.17057110989656
22.924000000000	-0.68645499322071	0.17427060425675
22.930000000000	-0.68564204121975	0.17796539388343
22.936000000000	-0.68480932803632	0.18165537483148
22.942000000000	-0.68395688776510	0.18534044341928
22.948000000000	-0.68308475502178	0.18902049623095
22.954000000000	-0.68219296494090	0.19269543011864
22.960000000000	-0.68128155317372	0.19636514220472
22.966000000000	-0.68035055588608	0.20002952988399
22.972000000000	-0.67940000975630	0.20368849082591
22.978000000000	-0.67842995197299	0.20734192297678
22.984000000000	-0.67744042023290	0.21098972456187
22.990000000000	-0.67643145273882	0.21463179408759
22.996000000000	-0.67540308819738	0.21826803034367
23.002000000000	-0.67435536581688	0.22189833240519
23.008000000000	-0.67328832530518	0.22552259963478
23.014000000000	-0.67220200686750	0.22914073168465
23.020000000000	-0.67109645120426	0.23275262849866
23.026000000000	-0.66997169950891	0.23635819031445
23.032000000000	-0.66882779346573	0.23995731766540
23.038000000000	-0.66766477524772	0.24354991138271
23.044000000000	-0.66648268751433	0.24713587259740
23.050000000000	-0.66528157340936	0.25071510274233
23.056000000000	-0.66406147655872	0.25428750355414
23.062000000000	-0.66282244106825	0.25785297707529
23.068000000000	-0.66156451152155	0.26141142565595
23.074000000000	-0.66028773297777	0.26496275195598
23.080000000000	-0.65899215096942	0.26850685894686
23.086000000000	-0.65767781150015	0.27204364991359
23.092000000000	-0.65634476104260	0.27557302845661
23.098000000000	-0.65499304653612	0.27909489849365
23.104000000000	-0.65362271538465	0.28260916426164
23.110000000000	-0.65223381545443	0.28611573031855
23.116000000000	-0.65082639507186	0.28961450154524
23.122000000000	-0.64940050302122	0.29310538314729
23.128000000000	-0.64795618854252	0.29658828065680
23.134000000000	-0.64649350132924	0.30006309993424
23.140000000000	-0.64501249152613	0.30352974717020
23.146000000000	-0.64351320972698	0.30698812888715
23.152000000000	-0.64199570697239	0.31043815194126
23.158000000000	-0.64046003474758	0.31387972352412
23.164000000000	-0.63890624498012	0.31731275116446
23.170000000000	-0.63733439003772	0.32073714272990
23.176000000000	-0.63574452272603	0.32415280642863
23.182000000000	-0.63413669628633	0.32755965081117
23.188000000000	-0.63251096439340	0.33095758477198
23.194000000000	-0.63086738115320	0.33434651755117
23.200000000000	-0.62920600110066	0.33772635873615
23.206000000000	-0.62752687919748	0.34109701826328
23.212000000000	-0.62583007082981	0.34445840641951
23.218000000000	-0.62411563180609	0.34781043384398
23.224000000000	-0.62238361835477	0.35115301152966
23.230000000000	-0.62063408712206	0.35448605082488
23.236000000000	-0.61886709516970	0.35780946343502
23.242000000000	-0.61708269997270	0.36112316142398
23.248000000000	-0.61528095941710	0.36442705721578
23.254000000000	-0.61346193179774	0.36772106359612
23.260000000000	-0.61162567581595	0.37100509371388
23.266000000000	-0.60977225057738	0.37427906108268
23.272000000000	-0.60790171558967	0.37754287958236
23.278000000000	-0.60601413076025	0.38079646346048
23.284000000000	-0.60410955639405	0.38403972733383
23.290000000000	-0.60218805319128	0.38727258618986
23.296000000000	-0.60024968224512	0.39049495538821
23.302000000000	-0.59829450503952	0.39370675066209
23.308000000000	-0.59632258344690	0.39690788811975
23.314000000000	-0.59433397972588	0.40009828424592
23.320000000000	-0.59232875651908	0.40327785590319
23.326000000000	-0.59030697685078	0.40644652033347
23.332000000000	-0.58826870412470	0.40960419515931
23.338000000000	-0.58621400212175	0.41275079838533
23.344000000000	-0.58414293499770	0.41588624839959
23.350000000000	-0.58205556728098	0.41901046397492
23.356000000000	-0.57995196387039	0.42212336427030
23.362000000000	-0.57783219003282	0.42522486883214
23.368000000000	-0.57569631140097	0.42831489759568
23.374000000000	-0.57354439397112	0.43139337088626
23.380000000000	-0.57137650410084	0.43446020942062
23.386000000000	-0.56919270850669	0.43751533430818
23.392000000000	-0.56699307426198	0.44055866705237
23.398000000000	-0.56477766879450	0.44359012955186
23.404000000000	-0.56254655988423	0.44660964410180
23.410000000000	-0.56029981566104	0.44961713339511
23.416000000000	-0.55803750460248	0.45261252052372
23.422000000000	-0.55575969553142	0.45559572897974
23.428000000000	-0.55346645761387	0.45856668265671
23.434000000000	-0.55115786035659	0.46152530585084
23.440000000000	-0.54883397360492	0.46447152326212
23.446000000000	-0.54649486754040	0.46740525999558
23.452000000000	-0.54414061267858	0.47032644156241
23.458000000000	-0.54177127986667	0.47323499388116
23.464000000000	-0.53938694028129	0.47613084327886
23.470000000000	-0.53698766542618	0.47901391649218
23.476000000000	-0.53457352712993	0.48188414066856
23.482000000000	-0.53214459754367	0.48474144336731
23.488000000000	-0.52970094913881	0.48758575256073
23.494000000000	-0.52724265470472	0.49041699663523
23.500000000000	-0.52476978734649	0.49323510439239
23.506000000000	-0.52228242048262	0.49604000505003
23.512000000000	-0.51978062784273	0.49883162824332
23.518000000000	-0.51726448346525	0.50160990402581
23.524000000000	-0.51473406169520	0.50437476287046
23.530000000000	-0.51218943718183	0.50712613567072
23.536000000000	-0.50963068487635	0.50986395374153
23.542000000000	-0.50705788002966	0.51258814882033
23.548000000000	-0.50447109819005	0.51529865306809
23.554000000000	-0.50187041520089	0.51799539907028
23.560000000000	-0.49925590719835	0.52067831983790
23.566000000000	-0.49662765060912	0.52334734880840
23.572000000000	-0.49398572214811	0.52600241984669
23.578000000000	-0.49133019881611	0.52864346724608
23.584000000000	-0.48866115789759	0.53127042572921
23.590000000000	-0.48597867695832	0.53388323044903
23.596000000000	-0.48328283384310	0.53648181698970
23.602000000000	-0.48057370667348	0.53906612136748
23.608000000000	-0.47785137384545	0.54163608003171
23.614000000000	-0.47511591402714	0.54419162986562
23.620000000000	-0.47236740615654	0.54673270818729
23.626000000000	-0.46960592943916	0.54925925275048
23.632000000000	-0.46683156334578	0.55177120174552
23.638000000000	-0.46404438761012	0.55426849380017
23.644000000000	-0.46124448222656	0.55675106798046
23.650000000000	-0.45843192744780	0.55921886379152
23.656000000000	-0.45560680378263	0.56167182117843
23.662000000000	-0.45276919199353	0.56410988052702
23.668000000000	-0.44991917309448	0.56653298266468
23.674000000000	-0.44705682834856	0.56894106886118
23.680000000000	-0.44418223926570	0.57133408082944
23.686000000000	-0.44129548760038	0.57371196072632
23.692000000000	-0.43839665534927	0.57607465115337
23.698000000000	-0.43548582474900	0.57842209515762
23.704000000000	-0.43256307827382	0.58075423623232
23.710000000000	-0.42962849863327	0.58307101831767
23.716000000000	-0.42668216876991	0.58537238580157
23.722000000000	-0.42372417185701	0.58765828352033
23.728000000000	-0.42075459129624	0.58992865675938
23.734000000000	-0.41777351071533	0.59218345125399
23.740000000000	-0.41478101396583	0.59442261318994
23.746000000000	-0.41177718512072	0.59664608920423
23.752000000000	-0.40877474931999	0.59884518673413
23.758000000000	-0.40576124269733	0.60102862045977
23.764000000000	-0.40273674897711	0.60319633907531
23.770000000000	-0.39970135209159	0.60534829172164
23.776000000000	-0.39665513617867	0.60748442798696
23.782000000000	-0.39359818557964	0.60960469790742
23.788000000000	-0.39053058483691	0.61170905196769
23.794000000000	-0.38745241869173	0.61379744110156
23.800000000000	-0.38436377208196	0.61586981669252
23.806000000000	-0.38126473013979	0.61792613057430
23.812000000000	-0.37815537818946	0.61996633503148
23.818000000000	-0.37503580174503	0.62199038279997
23.824000000000	-0.37190608650808	0.62399822706762
23.830000000000	-0.36876631836547	0.62598982147469
23.836000000000	-0.36561658338706	0.62796512011444
23.842000000000	-0.36245696782345	0.62992407753355
23.848000000000	-0.35928755810374	0.63186664873271
23.854000000000	-0.35610844083322	0.63379278916706
23.860000000000	-0.35291970279113	0.63570245474670
23.866000000000	-0.34972143092838	0.63759560183716
23.872000000000	-0.34651371236531	0.63947218725985
23.878000000000	-0.34329663438942	0.64133216829253
23.884000000000	-0.34007028445305	0.64317550266978
23.890000000000	-0.33683475017120	0.64500214858336
23.896000000000	-0.33359011931920	0.64681206468276
23.902000000000	-0.33033647983045	0.64860521007549
23.908000000000	-0.32707391979420	0.65038154432759
23.914000000000	-0.32380252745323	0.65214102746398
23.920000000000	-0.32052239120160	0.65388361996885
23.926000000000	-0.31723359958240	0.65560928278609
23.932000000000	-0.31393624128547	0.65731797731958
23.938000000000	-0.31063040514513	0.65900966543364
23.944000000000	-0.30731618013792	0.66068430945334
23.950000000000	-0.30399365538033	0.66234187216482
23.956000000000	-0.30066292012654	0.66398231681570
23.962000000000	-0.29732406376616	0.66560560711534
23.968000000000	-0.29397717582192	0.66721170723516
23.974000000000	-0.29062234594747	0.66880058180900
23.980000000000	-0.28725966392508	0.67037219593336
23.986000000000	-0.28388921966336	0.67192651516774
23.992000000000	-0.28051110319501	0.67346350553485
23.998000000000	-0.27712540467457	0.67498313352097
24.004000000000	-0.27373221437613	0.67648536607612
24.010000000000	-0.27033162269107	0.67797017061439
24.016000000000	-0.26692372012583	0.67943751501412
24.022000000000	-0.26350859729957	0.68088736761816
24.028000000000	-0.26008634494199	0.68231969723412
24.034000000000	-0.25665705389101	0.68373447313451
24.040000000000	-0.25322081509052	0.68513166505702
24.046000000000	-0.24977771958814	0.68651124320469
24.052000000000	-0.24632785853293	0.68787317824605
24.058000000000	-0.24287132317314	0.68921744131537
24.064000000000	-0.23940820485393	0.69054400401278
24.070000000000	-0.23593859501514	0.69185283840443
24.076000000000	-0.23246258518900	0.69314391702265
24.082000000000	-0.22898026699791	0.69441721286609
24.088000000000	-0.22549173215212	0.69567269939984
24.094000000000	-0.22199707244752	0.69691035055552
24.100000000000	-0.21849637976335	0.69813014073147
24.106000000000	-0.21498974605999	0.69933204479275
24.112000000000	-0.21147726337662	0.70051603807131
24.118000000000	-0.20795902382907	0.70168209636603
24.124000000000	-0.20443511960745	0.70283019594280
24.130000000000	-0.20090564297400	0.70396031353459
24.136000000000	-0.19737068626074	0.70507242634147
24.142000000000	-0.19383034186731	0.70616651203072
24.148000000000	-0.19028470225863	0.70724254873677
24.154000000000	-0.18673385996271	0.70830051506132
24.160000000000	-0.18317790756837	0.70934039007326
24.166000000000	-0.17961693772301	0.71036215330877
24.172000000000	-0.17605104313031	0.71136578477122
24.178000000000	-0.17248031654806	0.71235126493122
24.184000000000	-0.16890485078586	0.71331857472659
24.190000000000	-0.16532473870285	0.71426769556228
24.196000000000	-0.16174007320556	0.71519860931038
24.202000000000	-0.15815094724555	0.71611129831003
24.208000000000	-0.15455745381724	0.71700574536737
24.214000000000	-0.15095968595568	0.71788193375547
24.220000000000	-0.14735773673422	0.71873984721425
24.226000000000	-0.14375169926239	0.71957946995036
24.232000000000	-0.14014166668356	0.72040078663711
24.238000000000	-0.13652773217276	0.72120378241435
24.244000000000	-0.13290998893443	0.72198844288835
24.250000000000	-0.12928853020018	0.72275475413163
24.256000000000	-0.12566344922657	0.72350270268290
