#Parameters = {Epsilon=3; a=8.636; b=4.318; d_new=2; d_odj=74.4; h=1; l=26; l_old=26; tg_delta=0.01}
#"Frequency / GHz"	"S2,2 [Re]"	"S2,2 [Im]"	"Ref.Imp. [Re]"	"Ref.Imp. [Im]"
#-------------------------------------------------------------------------
22.000000000000	-0.013442450273676	0.71590733837015	613.07053357340	0.0000000000000
22.006000000000	-0.0091337942062205	0.71582332695166	612.82291089986	0.0000000000000
22.012000000000	-0.0048279008990392	0.71571348786878	612.57528822632	0.0000000000000
22.018000000000	-0.00052492423159992	0.71557785943826	612.32766555279	0.0000000000000
22.024000000000	0.0037749823621077	0.71541648086892	612.08004287925	0.0000000000000
22.030000000000	0.0080716658980760	0.71522939225689	611.83242020571	0.0000000000000
22.036000000000	0.012364973846736	0.71501663458069	611.58479753217	0.0000000000000
22.042000000000	0.016654754137363	0.71477824969647	611.33717485863	0.0000000000000
22.048000000000	0.020940855162430	0.71451428033307	611.08955218509	0.0000000000000
22.054000000000	0.025223125781933	0.71422477008725	610.84192951155	0.0000000000000
22.060000000000	0.029501415327636	0.71390976341871	610.59430683802	0.0000000000000
22.066000000000	0.033775573607294	0.71356930564532	610.34668416448	0.0000000000000
22.072000000000	0.038045450908820	0.71320344293815	610.09906149094	0.0000000000000
22.078000000000	0.042310898004410	0.71281222231663	609.85143881740	0.0000000000000
22.084000000000	0.046571766154606	0.71239569164364	609.60381614386	0.0000000000000
22.090000000000	0.050827907112335	0.71195389962057	609.35619347032	0.0000000000000
22.096000000000	0.055079173126884	0.71148689578245	609.10857079678	0.0000000000000
22.102000000000	0.059325416947836	0.71099473049305	608.86094812324	0.0000000000000
22.108000000000	0.063566491828958	0.71047745493988	608.61332544971	0.0000000000000
22.114000000000	0.067802251532048	0.70993512112936	608.36570277617	0.0000000000000
22.120000000000	0.072032550330733	0.70936778188184	608.11808010263	0.0000000000000
22.126000000000	0.076257243014220	0.70877549082666	607.87045742909	0.0000000000000
22.132000000000	0.080476184891010	0.70815830239723	607.62283475555	0.0000000000000
22.138000000000	0.084689231792557	0.70751627182612	607.37521208201	0.0000000000000
22.144000000000	0.088896240076889	0.70684945514006	607.12758940847	0.0000000000000
22.150000000000	0.093097066632198	0.70615790915504	606.87996673494	0.0000000000000
22.156000000000	0.097291568880350	0.70544169147133	606.63234406140	0.0000000000000
22.162000000000	0.10147960478040	0.70470086046858	606.38472138786	0.0000000000000
22.168000000000	0.10566103283200	0.70393547530080	606.13709871432	0.0000000000000
22.174000000000	0.10983571207887	0.70314559589150	605.88947604078	0.0000000000000
22.180000000000	0.11400350211209	0.70233128292864	605.64185336724	0.0000000000000
22.186000000000	0.11816426307345	0.70149259785976	605.39423069370	0.0000000000000
22.192000000000	0.12231785565874	0.70062960288697	605.14660802016	0.0000000000000
22.198000000000	0.12646414112095	0.69974236096204	604.89898534663	0.0000000000000
22.204000000000	0.13060298127352	0.69883093578141	604.65136267309	0.0000000000000
22.210000000000	0.13473423849342	0.69789539178127	604.40373999955	0.0000000000000
22.216000000000	0.13885777572434	0.69693579413260	604.15611732601	0.0000000000000
22.222000000000	0.14297345647969	0.69595220873620	603.90849465247	0.0000000000000
22.228000000000	0.14708114484570	0.69494470221776	603.66087197893	0.0000000000000
22.234000000000	0.15118070548436	0.69391334192292	603.41324930539	0.0000000000000
22.240000000000	0.15527200363638	0.69285819591231	603.16562663186	0.0000000000000
22.246000000000	0.15935490512414	0.69177933295661	602.91800395832	0.0000000000000
22.252000000000	0.16342927635452	0.69067682253162	602.67038128478	0.0000000000000
22.258000000000	0.16749498432175	0.68955073481330	602.42275861124	0.0000000000000
22.264000000000	0.17155189661023	0.68840114067286	602.17513593770	0.0000000000000
22.270000000000	0.17559988139724	0.68722811167180	601.92751326416	0.0000000000000
22.276000000000	0.17963880745569	0.68603172005701	601.67989059062	0.0000000000000
22.282000000000	0.18366854415682	0.68481203875583	601.43226791708	0.0000000000000
22.288000000000	0.18768896147280	0.68356914137111	601.18464524355	0.0000000000000
22.294000000000	0.19169992997938	0.68230310217633	600.93702257001	0.0000000000000
22.300000000000	0.19570132085841	0.68101399611065	600.68939989647	0.0000000000000
22.306000000000	0.19969300590044	0.67970189877403	600.44177722293	0.0000000000000
22.312000000000	0.20367485750717	0.67836688642230	600.19415454939	0.0000000000000
22.318000000000	0.20764674869391	0.67700903596227	599.94653187585	0.0000000000000
22.324000000000	0.21160855309204	0.67562842494683	599.69890920231	0.0000000000000
22.330000000000	0.21556014495137	0.67422513157006	599.45128652878	0.0000000000000
22.336000000000	0.21950139914252	0.67279923466234	599.20366385524	0.0000000000000
22.342000000000	0.22343219115919	0.67135081368549	598.95604118170	0.0000000000000
22.348000000000	0.22735239712052	0.66987994872786	598.70841850816	0.0000000000000
22.354000000000	0.23126189377327	0.66838672049949	598.46079583462	0.0000000000000
22.360000000000	0.23516055849408	0.66687121032724	598.21317316108	0.0000000000000
22.366000000000	0.23904826929165	0.66533350014991	597.96555048754	0.0000000000000
22.372000000000	0.24292490480884	0.66377367251341	597.71792781400	0.0000000000000
22.378000000000	0.24679034432487	0.66219181056592	597.47030514047	0.0000000000000
22.384000000000	0.25064446775732	0.66058799805303	597.22268246693	0.0000000000000
22.390000000000	0.25448715566424	0.65896231931293	596.97505979339	0.0000000000000
22.396000000000	0.25831828924612	0.65731485927154	596.72743711985	0.0000000000000
22.402000000000	0.26213775034790	0.65564570343777	596.47981444631	0.0000000000000
22.408000000000	0.26594542146092	0.65395493789862	596.23219177277	0.0000000000000
22.414000000000	0.26974118572485	0.65224264931443	595.98456909923	0.0000000000000
22.420000000000	0.27352492692955	0.65050892491408	595.73694642570	0.0000000000000
22.426000000000	0.27729652951694	0.64875385249017	595.48932375216	0.0000000000000
22.432000000000	0.28105587858284	0.64697752039426	595.24170107862	0.0000000000000
22.438000000000	0.28480285987876	0.64518001753208	594.99407840508	0.0000000000000
22.444000000000	0.28853735981365	0.64336143335877	594.74645573154	0.0000000000000
22.450000000000	0.29225926545563	0.64152185787414	594.49883305800	0.0000000000000
22.456000000000	0.29596846453374	0.63966138161788	594.25121038446	0.0000000000000
22.462000000000	0.29966484543956	0.63778009566482	594.00358771092	0.0000000000000
22.468000000000	0.30334829722888	0.63587809162023	593.75596503739	0.0000000000000
22.474000000000	0.30701870962331	0.63395546161505	593.50834236385	0.0000000000000
22.480000000000	0.31067597301187	0.63201229830119	593.26071969031	0.0000000000000
22.486000000000	0.31431997845256	0.63004869484682	593.01309701677	0.0000000000000
22.492000000000	0.31795061767384	0.62806474493166	592.76547434323	0.0000000000000
22.498000000000	0.32156778307619	0.62606054274228	592.51785166969	0.0000000000000
22.504000000000	0.32517136773355	0.62403618296742	592.27022899615	0.0000000000000
22.510000000000	0.32876126539476	0.62199176079332	592.02260632262	0.0000000000000
22.516000000000	0.33233737048500	0.61992737189904	591.77498364908	0.0000000000000
22.522000000000	0.33589957810715	0.61784311245179	591.52736097554	0.0000000000000
22.528000000000	0.33944778404316	0.61573907910229	591.27973830200	0.0000000000000
22.534000000000	0.34298188475541	0.61361536898014	591.03211562846	0.0000000000000
22.540000000000	0.34650177738798	0.61147207968916	590.78449295492	0.0000000000000
22.546000000000	0.35000735976794	0.60930930930279	590.53687028138	0.0000000000000
22.552000000000	0.35349853040662	0.60712715635945	590.28924760784	0.0000000000000
22.558000000000	0.35697518850083	0.60492571985794	590.04162493431	0.0000000000000
22.564000000000	0.36043723393405	0.60270509925287	589.79400226077	0.0000000000000
22.570000000000	0.36388456727761	0.60046539445002	589.54637958723	0.0000000000000
22.576000000000	0.36731708979187	0.59820670580181	589.29875691369	0.0000000000000
22.582000000000	0.37073470342729	0.59592913410269	589.05113424015	0.0000000000000
22.588000000000	0.37413731082559	0.59363278058462	588.80351156661	0.0000000000000
22.594000000000	0.37752481532076	0.59131774691247	588.55588889307	0.0000000000000
22.600000000000	0.38089712094019	0.58898413517954	588.30826621954	0.0000000000000
22.606000000000	0.38425413240560	0.58663204790296	588.06064354600	0.0000000000000
22.612000000000	0.38759575513413	0.58426158801921	587.81302087246	0.0000000000000
22.618000000000	0.39092189523926	0.58187285887960	587.56539819892	0.0000000000000
22.624000000000	0.39423245953178	0.57946596424577	587.31777552538	0.0000000000000
22.630000000000	0.39752735552074	0.57704100828516	587.07015285184	0.0000000000000
22.636000000000	0.40078265860537	0.57461469489657	586.88151010885	0.0000000000000
22.642000000000	0.40402231364953	0.57217079944705	586.69286736585	0.0000000000000
22.648000000000	0.40724623245411	0.56970942532627	586.50422462285	0.0000000000000
22.654000000000	0.41045432750440	0.56723067629717	586.31558187986	0.0000000000000
22.660000000000	0.41364651197076	0.56473465649162	586.12693913686	0.0000000000000
22.666000000000	0.41682269970937	0.56222147040616	585.93829639387	0.0000000000000
22.672000000000	0.41998280526290	0.55969122289765	585.74965365087	0.0000000000000
22.678000000000	0.42312674386121	0.55714401917908	585.56101090788	0.0000000000000
22.684000000000	0.42625443142195	0.55457996481526	585.37236816488	0.0000000000000
22.690000000000	0.42936578455124	0.55199916571855	585.18372542188	0.0000000000000
22.696000000000	0.43246072054426	0.54940172814469	584.99508267889	0.0000000000000
22.702000000000	0.43553915738582	0.54678775868847	584.80643993589	0.0000000000000
22.708000000000	0.43860101375093	0.54415736427959	584.61779719290	0.0000000000000
22.714000000000	0.44164620900538	0.54151065217840	584.42915444990	0.0000000000000
22.720000000000	0.44467466320622	0.53884772997170	584.24051170691	0.0000000000000
22.726000000000	0.44768629710231	0.53616870556857	584.05186896391	0.0000000000000
22.732000000000	0.45068103213476	0.53347368719617	583.86322622091	0.0000000000000
22.738000000000	0.45365879043744	0.53076278339556	583.67458347792	0.0000000000000
22.744000000000	0.45661949483739	0.52803610301756	583.48594073492	0.0000000000000
22.750000000000	0.45956306885527	0.52529375521857	583.29729799193	0.0000000000000
22.756000000000	0.46248943670579	0.52253584945643	583.10865524893	0.0000000000000
22.762000000000	0.46539852329803	0.51976249548631	582.92001250593	0.0000000000000
22.768000000000	0.46829025423589	0.51697380335656	582.73136976294	0.0000000000000
22.774000000000	0.47116455581839	0.51416988340460	582.54272701994	0.0000000000000
22.780000000000	0.47402135504002	0.51135084625281	582.35408427695	0.0000000000000
22.786000000000	0.47686057959106	0.50851680280448	582.16544153395	0.0000000000000
22.792000000000	0.47968215785786	0.50566786423966	581.97679879096	0.0000000000000
22.798000000000	0.48248601892314	0.50280414201112	581.78815604796	0.0000000000000
22.804000000000	0.48527209256623	0.49992574784029	581.59951330496	0.0000000000000
22.810000000000	0.48804030926332	0.49703279371317	581.41087056197	0.0000000000000
22.816000000000	0.49079060018770	0.49412539187633	581.22222781897	0.0000000000000
22.822000000000	0.49352289720992	0.49120365483285	581.03358507598	0.0000000000000
22.828000000000	0.49623713289803	0.48826769533830	580.84494233298	0.0000000000000
22.834000000000	0.49893324051774	0.48531762639669	580.65629958999	0.0000000000000
22.840000000000	0.50161115403254	0.48235356125653	580.46765684699	0.0000000000000
22.846000000000	0.50427080810388	0.47937561340677	580.27901410399	0.0000000000000
22.852000000000	0.50691213809125	0.47638389657284	580.09037136100	0.0000000000000
22.858000000000	0.50953508005233	0.47337852471269	579.90172861800	0.0000000000000
22.864000000000	0.51213957074303	0.47035961201278	579.71308587501	0.0000000000000
22.870000000000	0.51472554761758	0.46732727288415	579.52444313201	0.0000000000000
22.876000000000	0.51729294882859	0.46428162195845	579.33580038902	0.0000000000000
22.882000000000	0.51984171322705	0.46122277408404	579.14715764602	0.0000000000000
22.888000000000	0.52237178036241	0.45815084432201	578.95851490302	0.0000000000000
22.894000000000	0.52488309048251	0.45506594794230	578.76987216003	0.0000000000000
22.900000000000	0.52737558453364	0.45196820041974	578.58122941703	0.0000000000000
22.906000000000	0.52984920416045	0.44885771743023	578.39258667404	0.0000000000000
22.912000000000	0.53230389170592	0.44573461484676	578.20394393104	0.0000000000000
22.918000000000	0.53473959021133	0.44259900873556	578.01530118804	0.0000000000000
22.924000000000	0.53715624341614	0.43945101535227	577.82665844505	0.0000000000000
22.930000000000	0.53955379575793	0.43629075113800	577.63801570205	0.0000000000000
22.936000000000	0.54193219237227	0.43311833271554	577.44937295906	0.0000000000000
22.942000000000	0.54429137909258	0.42993387688545	577.26073021606	0.0000000000000
22.948000000000	0.54663130245005	0.42673750062231	577.07208747307	0.0000000000000
22.954000000000	0.54895190967341	0.42352932107080	576.88344473007	0.0000000000000
22.960000000000	0.55125314868882	0.42030945554196	576.69480198707	0.0000000000000
22.966000000000	0.55353496811965	0.41707802150933	576.50615924408	0.0000000000000
22.972000000000	0.55579731728627	0.41383513660517	576.31751650108	0.0000000000000
22.978000000000	0.55804014620587	0.41058091861668	576.12887375809	0.0000000000000
22.984000000000	0.56026340559220	0.40731548548219	575.94023101509	0.0000000000000
22.990000000000	0.56246704685534	0.40403895528743	575.75158827210	0.0000000000000
22.996000000000	0.56465102210142	0.40075144626173	575.56294552910	0.0000000000000
23.002000000000	0.56681528413237	0.39745307677427	575.37430278610	0.0000000000000
23.008000000000	0.56895978644559	0.39414396533038	575.18566004311	0.0000000000000
23.014000000000	0.57108448323370	0.39082423056774	574.99701730011	0.0000000000000
23.020000000000	0.57318932938416	0.38749399125269	574.80837455712	0.0000000000000
23.026000000000	0.57527428047899	0.38415336627652	574.61973181412	0.0000000000000
23.032000000000	0.57733929279436	0.38080247465174	574.43108907112	0.0000000000000
23.038000000000	0.57938432330031	0.37744143550839	574.24244632813	0.0000000000000
23.044000000000	0.58140932966028	0.37407036809035	574.05380358513	0.0000000000000
23.050000000000	0.58341427023079	0.37068939175166	573.86516084214	0.0000000000000
23.056000000000	0.58539910406101	0.36729862595284	573.67651809914	0.0000000000000
23.062000000000	0.58736379089231	0.36389819025723	573.48787535615	0.0000000000000
23.068000000000	0.58930829115787	0.36048820432733	573.29923261315	0.0000000000000
23.074000000000	0.59123256598223	0.35706878792119	573.11058987015	0.0000000000000
23.080000000000	0.59313657718079	0.35364006088871	572.92194712716	0.0000000000000
23.086000000000	0.59502028725937	0.35020214316804	572.73330438416	0.0000000000000
23.092000000000	0.59688365941370	0.34675515478200	572.54466164117	0.0000000000000
23.098000000000	0.59872665752894	0.34329921583439	572.35601889817	0.0000000000000
23.104000000000	0.60054924617912	0.33983444650647	572.16737615518	0.0000000000000
23.110000000000	0.60235139062666	0.33636096705330	571.97873341218	0.0000000000000
23.116000000000	0.60413305682180	0.33287889780020	571.79009066918	0.0000000000000
23.122000000000	0.60589421140204	0.32938835913913	571.60144792619	0.0000000000000
23.128000000000	0.60763482169157	0.32588947152517	571.41280518319	0.0000000000000
23.134000000000	0.60935485570070	0.32238235547294	571.22416244020	0.0000000000000
23.140000000000	0.61105428212524	0.31886713155305	571.03551969720	0.0000000000000
23.146000000000	0.61273307034590	0.31534392038853	570.84687695421	0.0000000000000
23.152000000000	0.61439119042767	0.31181284265136	570.65823421121	0.0000000000000
23.158000000000	0.61602861311917	0.30827401905888	570.46959146821	0.0000000000000
23.164000000000	0.61764530985201	0.30472757037033	570.28094872522	0.0000000000000
23.170000000000	0.61924125274011	0.30117361738331	570.09230598222	0.0000000000000
23.176000000000	0.62081641457906	0.29761228093026	569.90366323923	0.0000000000000
23.182000000000	0.62237076884536	0.29404368187504	569.71502049623	0.0000000000000
23.188000000000	0.62390428969579	0.29046794110938	569.52637775323	0.0000000000000
23.194000000000	0.62541695196664	0.28688517954943	569.33773501024	0.0000000000000
23.200000000000	0.62690873117303	0.28329551813230	569.14909226724	0.0000000000000
23.206000000000	0.62837960350812	0.27969907781262	568.96044952425	0.0000000000000
23.212000000000	0.62982954584235	0.27609597955905	568.77180678125	0.0000000000000
23.218000000000	0.63125853572274	0.27248634435088	568.58316403826	0.0000000000000
23.224000000000	0.63266655137204	0.26887029317456	568.39452129526	0.0000000000000
23.230000000000	0.63405357168795	0.26524794702033	568.20587855226	0.0000000000000
23.236000000000	0.63541957624233	0.26161942687877	568.01723580927	0.0000000000000
23.242000000000	0.63676454528038	0.25798485373737	567.82859306627	0.0000000000000
23.248000000000	0.63808845971979	0.25434434857721	567.63995032328	0.0000000000000
23.254000000000	0.63939130114991	0.25069803236949	567.45130758028	0.0000000000000
23.260000000000	0.64067305183089	0.24704602607221	567.26266483729	0.0000000000000
23.266000000000	0.64193369469278	0.24338845062676	567.07402209429	0.0000000000000
23.272000000000	0.64317321333471	0.23972542695457	566.88537935129	0.0000000000000
23.278000000000	0.64439159202393	0.23605707595376	566.69673660830	0.0000000000000
23.284000000000	0.64558881569495	0.23238351849579	566.50809386530	0.0000000000000
23.290000000000	0.64676486994859	0.22870487542211	566.31945112231	0.0000000000000
23.296000000000	0.64791974105105	0.22502126754084	566.13080837931	0.0000000000000
23.302000000000	0.64905341593299	0.22133281562348	565.94216563631	0.0000000000000
23.308000000000	0.65016588218852	0.21763964040152	565.75352289332	0.0000000000000
23.314000000000	0.65125712807428	0.21394186256322	565.56488015032	0.0000000000000
23.320000000000	0.65232714250847	0.21023960275026	565.37623740733	0.0000000000000
23.326000000000	0.65337591506976	0.20653298155447	565.18759466433	0.0000000000000
23.332000000000	0.65440343599641	0.20282211951454	564.99895192134	0.0000000000000
23.338000000000	0.65540969618514	0.19910713711277	564.81030917834	0.0000000000000
23.344000000000	0.65639468719017	0.19538815477180	564.62166643534	0.0000000000000
23.350000000000	0.65735840122215	0.19166529285133	564.43302369235	0.0000000000000
23.356000000000	0.65830083114710	0.18793867164493	564.24438094935	0.0000000000000
23.362000000000	0.65922197048534	0.18420841137675	564.05573820636	0.0000000000000
23.368000000000	0.66012181341043	0.18047463219830	563.86709546336	0.0000000000000
23.374000000000	0.66100035474803	0.17673745418526	563.67845272037	0.0000000000000
23.380000000000	0.66185758997488	0.17299699733424	563.48980997737	0.0000000000000
23.386000000000	0.66269351521756	0.16925338155959	563.30116723437	0.0000000000000
23.392000000000	0.66350812725150	0.16550672669020	563.11252449138	0.0000000000000
23.398000000000	0.66430142349971	0.16175715246633	562.92388174838	0.0000000000000
23.404000000000	0.66507340203172	0.15800477853638	562.73523900539	0.0000000000000
23.410000000000	0.66582406156235	0.15424972445380	562.54659626239	0.0000000000000
23.416000000000	0.66655340145060	0.15049210967386	562.35795351939	0.0000000000000
