#Parameters = {Epsilon=3; a=8.636; b=4.318; d_new=2; d_odj=74.4; h=1; l=26; l_old=26; tg_delta=0.01}
#"Frequency / GHz"	"S2,2 [Re]"	"S2,2 [Im]"	"Ref.Imp. [Re]"	"Ref.Imp. [Im]"
#-------------------------------------------------------------------------
22.000000000000	-0.65435243186702	0.29117825175980	613.07053357340	0.0000000000000
22.006000000000	-0.65268655954548	0.29452393625142	612.82291089986	0.0000000000000
22.012000000000	-0.65100421484789	0.29785906041930	612.57528822632	0.0000000000000
22.018000000000	-0.64930546870396	0.30118354720064	612.32766555279	0.0000000000000
22.024000000000	-0.64759039234787	0.30449732004116	612.08004287925	0.0000000000000
22.030000000000	-0.64585905731456	0.30780030289531	611.83242020571	0.0000000000000
22.036000000000	-0.64411153543600	0.31109242022650	611.58479753217	0.0000000000000
22.042000000000	-0.64234789883750	0.31437359700735	611.33717485863	0.0000000000000
22.048000000000	-0.64056821993405	0.31764375871981	611.08955218509	0.0000000000000
22.054000000000	-0.63877257142665	0.32090283135536	610.84192951155	0.0000000000000
22.060000000000	-0.63696102629865	0.32415074141512	610.59430683802	0.0000000000000
22.066000000000	-0.63513365781217	0.32738741590997	610.34668416448	0.0000000000000
22.072000000000	-0.63329053950445	0.33061278236063	610.09906149094	0.0000000000000
22.078000000000	-0.63143174518427	0.33382676879775	609.85143881740	0.0000000000000
22.084000000000	-0.62955734892838	0.33702930376190	609.60381614386	0.0000000000000
22.090000000000	-0.62766742507796	0.34022031630366	609.35619347032	0.0000000000000
22.096000000000	-0.62576204823508	0.34339973598356	609.10857079678	0.0000000000000
22.102000000000	-0.62384129325913	0.34656749287207	608.86094812324	0.0000000000000
22.108000000000	-0.62190523526340	0.34972351754958	608.61332544971	0.0000000000000
22.114000000000	-0.61995394961151	0.35286774110633	608.36570277617	0.0000000000000
22.120000000000	-0.61798751191403	0.35600009514229	608.11808010263	0.0000000000000
22.126000000000	-0.61600599802496	0.35912051176711	607.87045742909	0.0000000000000
22.132000000000	-0.61400948403831	0.36222892359995	607.62283475555	0.0000000000000
22.138000000000	-0.61199804628472	0.36532526376934	607.37521208201	0.0000000000000
22.144000000000	-0.60997176132806	0.36840946591307	607.12758940847	0.0000000000000
22.150000000000	-0.60793070596199	0.37148146417792	606.87996673494	0.0000000000000
22.156000000000	-0.60587495720670	0.37454119321954	606.63234406140	0.0000000000000
22.162000000000	-0.60380459230546	0.37758858820217	606.38472138786	0.0000000000000
22.168000000000	-0.60171968872139	0.38062358479846	606.13709871432	0.0000000000000
22.174000000000	-0.59962032413410	0.38364611918913	605.88947604078	0.0000000000000
22.180000000000	-0.59750657643641	0.38665612806280	605.64185336724	0.0000000000000
22.186000000000	-0.59537852373109	0.38965354861563	605.39423069370	0.0000000000000
22.192000000000	-0.59323624432760	0.39263831855101	605.14660802016	0.0000000000000
22.198000000000	-0.59107981673884	0.39561037607927	604.89898534663	0.0000000000000
22.204000000000	-0.58890931967797	0.39856965991734	604.65136267309	0.0000000000000
22.210000000000	-0.58672483205519	0.40151610928835	604.40373999955	0.0000000000000
22.216000000000	-0.58452643297456	0.40444966392129	604.15611732601	0.0000000000000
22.222000000000	-0.58231420173082	0.40737026405063	603.90849465247	0.0000000000000
22.228000000000	-0.58008821780627	0.41027785041588	603.66087197893	0.0000000000000
22.234000000000	-0.57784856086765	0.41317236426120	603.41324930539	0.0000000000000
22.240000000000	-0.57559531076299	0.41605374733495	603.16562663186	0.0000000000000
22.246000000000	-0.57332854751857	0.41892194188925	602.91800395832	0.0000000000000
22.252000000000	-0.57104835133578	0.42177689067950	602.67038128478	0.0000000000000
22.258000000000	-0.56875480258815	0.42461853696393	602.42275861124	0.0000000000000
22.264000000000	-0.56644798181823	0.42744682450308	602.17513593770	0.0000000000000
22.270000000000	-0.56412796973461	0.43026169755929	601.92751326416	0.0000000000000
22.276000000000	-0.56179484720894	0.43306310089623	601.67989059062	0.0000000000000
22.282000000000	-0.55944869527288	0.43585097977830	601.43226791708	0.0000000000000
22.288000000000	-0.55708959511517	0.43862527997014	601.18464524355	0.0000000000000
22.294000000000	-0.55471762807871	0.44138594773602	600.93702257001	0.0000000000000
22.300000000000	-0.55233287565756	0.44413292983933	600.68939989647	0.0000000000000
22.306000000000	-0.54993541949409	0.44686617354193	600.44177722293	0.0000000000000
22.312000000000	-0.54752534137602	0.44958562660362	600.19415454939	0.0000000000000
22.318000000000	-0.54510272323360	0.45229123728146	599.94653187585	0.0000000000000
22.324000000000	-0.54266764713670	0.45498295432923	599.69890920231	0.0000000000000
22.330000000000	-0.54022019529199	0.45766072699673	599.45128652878	0.0000000000000
22.336000000000	-0.53776045004011	0.46032450502918	599.20366385524	0.0000000000000
22.342000000000	-0.53528849385284	0.46297423866656	598.95604118170	0.0000000000000
22.348000000000	-0.53280440933032	0.46560987864292	598.70841850816	0.0000000000000
22.354000000000	-0.53030827919829	0.46823137618575	598.46079583462	0.0000000000000
22.360000000000	-0.52780018630529	0.47083868301526	598.21317316108	0.0000000000000
22.366000000000	-0.52528021361993	0.47343175134367	597.96555048754	0.0000000000000
22.372000000000	-0.52274844422820	0.47601053387459	597.71792781400	0.0000000000000
22.378000000000	-0.52020496133070	0.47857498380218	597.47030514047	0.0000000000000
22.384000000000	-0.51764984823999	0.48112505481053	597.22268246693	0.0000000000000
22.390000000000	-0.51508318837789	0.48366070107289	596.97505979339	0.0000000000000
22.396000000000	-0.51250506527286	0.48618187725089	596.72743711985	0.0000000000000
22.402000000000	-0.50991556255729	0.48868853849385	596.47981444631	0.0000000000000
22.408000000000	-0.50731476396492	0.49118064043797	596.23219177277	0.0000000000000
22.414000000000	-0.50470275332824	0.49365813920561	595.98456909923	0.0000000000000
22.420000000000	-0.50207961457584	0.49612099140445	595.73694642570	0.0000000000000
22.426000000000	-0.49944543172989	0.49856915412674	595.48932375216	0.0000000000000
22.432000000000	-0.49680028890355	0.50100258494852	595.24170107862	0.0000000000000
22.438000000000	-0.49414427029842	0.50342124192877	594.99407840508	0.0000000000000
22.444000000000	-0.49147746020202	0.50582508360865	594.74645573154	0.0000000000000
22.450000000000	-0.48879994298526	0.50821406901063	594.49883305800	0.0000000000000
22.456000000000	-0.48611180309999	0.51058815763773	594.25121038446	0.0000000000000
22.462000000000	-0.48341312507644	0.51294730947261	594.00358771092	0.0000000000000
22.468000000000	-0.48070399352081	0.51529148497680	593.75596503739	0.0000000000000
22.474000000000	-0.47798449311281	0.51762064508981	593.50834236385	0.0000000000000
22.480000000000	-0.47525470860320	0.51993475122827	593.26071969031	0.0000000000000
22.486000000000	-0.47251472481139	0.52223376528513	593.01309701677	0.0000000000000
22.492000000000	-0.46976462662304	0.52451764962870	592.76547434323	0.0000000000000
22.498000000000	-0.46700449898764	0.52678636710187	592.51785166969	0.0000000000000
22.504000000000	-0.46423442691616	0.52903988102117	592.27022899615	0.0000000000000
22.510000000000	-0.46145449547868	0.53127815517589	592.02260632262	0.0000000000000
22.516000000000	-0.45866478980206	0.53350115382721	591.77498364908	0.0000000000000
22.522000000000	-0.45586539506756	0.53570884170731	591.52736097554	0.0000000000000
22.528000000000	-0.45305639650859	0.53790118401841	591.27973830200	0.0000000000000
22.534000000000	-0.45023787940837	0.54007814643194	591.03211562846	0.0000000000000
22.540000000000	-0.44740992909766	0.54223969508757	590.78449295492	0.0000000000000
22.546000000000	-0.44457263095245	0.54438579659229	590.53687028138	0.0000000000000
22.552000000000	-0.44172607039176	0.54651641801954	590.28924760784	0.0000000000000
22.558000000000	-0.43887033287534	0.54863152690822	590.04162493431	0.0000000000000
22.564000000000	-0.43600550390150	0.55073109126178	589.79400226077	0.0000000000000
22.570000000000	-0.43313166900482	0.55281507954729	589.54637958723	0.0000000000000
22.576000000000	-0.43024891375401	0.55488346069448	589.29875691369	0.0000000000000
22.582000000000	-0.42735732374970	0.55693620409481	589.05113424015	0.0000000000000
22.588000000000	-0.42445698462226	0.55897327960050	588.80351156661	0.0000000000000
22.594000000000	-0.42154798202966	0.56099465752359	588.55588889307	0.0000000000000
22.600000000000	-0.41863040165529	0.56300030863495	588.30826621954	0.0000000000000
22.606000000000	-0.41570432920586	0.56499020416335	588.06064354600	0.0000000000000
22.612000000000	-0.41276985040924	0.56696431579449	587.81302087246	0.0000000000000
22.618000000000	-0.40982705101241	0.56892261567000	587.56539819892	0.0000000000000
22.624000000000	-0.40687601677932	0.57086507638647	587.31777552538	0.0000000000000
22.630000000000	-0.40391683348881	0.57279167099449	587.07015285184	0.0000000000000
22.636000000000	-0.40094958693259	0.57470237299767	586.88151010885	0.0000000000000
22.642000000000	-0.39797436291311	0.57659715635161	586.69286736585	0.0000000000000
22.648000000000	-0.39499124724158	0.57847599546296	586.50422462285	0.0000000000000
22.654000000000	-0.39200032573592	0.58033886518839	586.31558187986	0.0000000000000
22.660000000000	-0.38900168421875	0.58218574083364	586.12693913686	0.0000000000000
22.666000000000	-0.38599540851536	0.58401659815246	585.93829639387	0.0000000000000
22.672000000000	-0.38298158445175	0.58583141334566	585.74965365087	0.0000000000000
22.678000000000	-0.37996029785262	0.58763016306005	585.56101090788	0.0000000000000
22.684000000000	-0.37693163453944	0.58941282438752	585.37236816488	0.0000000000000
22.690000000000	-0.37389568032846	0.59117937486392	585.18372542188	0.0000000000000
22.696000000000	-0.37085252102878	0.59292979246814	584.99508267889	0.0000000000000
22.702000000000	-0.36780224244044	0.59466405562104	584.80643993589	0.0000000000000
22.708000000000	-0.36474493035245	0.59638214318445	584.61779719290	0.0000000000000
22.714000000000	-0.36168067054092	0.59808403446016	584.42915444990	0.0000000000000
22.720000000000	-0.35860954876715	0.59976970918887	584.24051170691	0.0000000000000
22.726000000000	-0.35553165077577	0.60143914754919	584.05186896391	0.0000000000000
22.732000000000	-0.35244706229283	0.60309233015660	583.86322622091	0.0000000000000
22.738000000000	-0.34935586902395	0.60472923806242	583.67458347792	0.0000000000000
22.744000000000	-0.34625815665247	0.60634985275280	583.48594073492	0.0000000000000
22.750000000000	-0.34315401083763	0.60795415614765	583.29729799193	0.0000000000000
22.756000000000	-0.34004351721270	0.60954213059964	583.10865524893	0.0000000000000
22.762000000000	-0.33692676138320	0.61111375889314	582.92001250593	0.0000000000000
22.768000000000	-0.33380382892507	0.61266902424320	582.73136976294	0.0000000000000
22.774000000000	-0.33067480538289	0.61420791029448	582.54272701994	0.0000000000000
22.780000000000	-0.32753977626807	0.61573040112027	582.35408427695	0.0000000000000
22.786000000000	-0.32439882705710	0.61723648122135	582.16544153395	0.0000000000000
22.792000000000	-0.32125204318978	0.61872613552503	581.97679879096	0.0000000000000
22.798000000000	-0.31809951006744	0.62019934938409	581.78815604796	0.0000000000000
22.804000000000	-0.31494131305124	0.62165610857568	581.59951330496	0.0000000000000
22.810000000000	-0.31177753746038	0.62309639930032	581.41087056197	0.0000000000000
22.816000000000	-0.30860826857043	0.62452020818084	581.22222781897	0.0000000000000
22.822000000000	-0.30543359161160	0.62592752226133	581.03358507598	0.0000000000000
22.828000000000	-0.30225359176699	0.62731832900607	580.84494233298	0.0000000000000
22.834000000000	-0.29906835417097	0.62869261629848	580.65629958999	0.0000000000000
22.840000000000	-0.29587796390745	0.63005037244009	580.46765684699	0.0000000000000
22.846000000000	-0.29268250600820	0.63139158614946	580.27901410399	0.0000000000000
22.852000000000	-0.28948206545120	0.63271624656110	580.09037136100	0.0000000000000
22.858000000000	-0.28627672715900	0.63402434322448	579.90172861800	0.0000000000000
22.864000000000	-0.28306657599704	0.63531586610291	579.71308587501	0.0000000000000
22.870000000000	-0.27985169677201	0.63659080557249	579.52444313201	0.0000000000000
22.876000000000	-0.27663217423027	0.63784915242107	579.33580038902	0.0000000000000
22.882000000000	-0.27340809305617	0.63909089784717	579.14715764602	0.0000000000000
22.888000000000	-0.27017953787049	0.64031603345892	578.95851490302	0.0000000000000
22.894000000000	-0.26694659322879	0.64152455127299	578.76987216003	0.0000000000000
22.900000000000	-0.26370934361987	0.64271644371356	578.58122941703	0.0000000000000
22.906000000000	-0.26046787346415	0.64389170361118	578.39258667404	0.0000000000000
22.912000000000	-0.25722226711208	0.64505032420180	578.20394393104	0.0000000000000
22.918000000000	-0.25397260884263	0.64619229912563	578.01530118804	0.0000000000000
22.924000000000	-0.25071898286168	0.64731762242608	577.82665844505	0.0000000000000
22.930000000000	-0.24746147330050	0.64842628854873	577.63801570205	0.0000000000000
22.936000000000	-0.24420016421418	0.64951829234024	577.44937295906	0.0000000000000
22.942000000000	-0.24093513958013	0.65059362904727	577.26073021606	0.0000000000000
22.948000000000	-0.23766648329652	0.65165229431541	577.07208747307	0.0000000000000
22.954000000000	-0.23439427918080	0.65269428418812	576.88344473007	0.0000000000000
22.960000000000	-0.23111861096817	0.65371959510567	576.69480198707	0.0000000000000
22.966000000000	-0.22783956231006	0.65472822390404	576.50615924408	0.0000000000000
22.972000000000	-0.22455721677268	0.65572016781386	576.31751650108	0.0000000000000
22.978000000000	-0.22127165783550	0.65669542445934	576.12887375809	0.0000000000000
22.984000000000	-0.21798296888979	0.65765399185721	575.94023101509	0.0000000000000
22.990000000000	-0.21469123323715	0.65859586841559	575.75158827210	0.0000000000000
22.996000000000	-0.21139653408803	0.65952105293301	575.56294552910	0.0000000000000
23.002000000000	-0.20809895456028	0.66042954459722	575.37430278610	0.0000000000000
23.008000000000	-0.20479857767773	0.66132134298423	575.18566004311	0.0000000000000
23.014000000000	-0.20149548636871	0.66219644805713	574.99701730011	0.0000000000000
23.020000000000	-0.19818976346465	0.66305486016510	574.80837455712	0.0000000000000
23.026000000000	-0.19488149169864	0.66389658004228	574.61973181412	0.0000000000000
23.032000000000	-0.19157075370399	0.66472160880669	574.43108907112	0.0000000000000
23.038000000000	-0.18825763201286	0.66552994795921	574.24244632813	0.0000000000000
23.044000000000	-0.18494220905483	0.66632159938242	574.05380358513	0.0000000000000
23.050000000000	-0.18162456715550	0.66709656533958	573.86516084214	0.0000000000000
23.056000000000	-0.17830478853512	0.66785484847353	573.67651809914	0.0000000000000
23.062000000000	-0.17498295530718	0.66859645180564	573.48787535615	0.0000000000000
23.068000000000	-0.17165914947705	0.66932137873465	573.29923261315	0.0000000000000
23.074000000000	-0.16833345294061	0.67002963303570	573.11058987015	0.0000000000000
23.080000000000	-0.16500594748287	0.67072121885915	572.92194712716	0.0000000000000
23.086000000000	-0.16167671477663	0.67139614072957	572.73330438416	0.0000000000000
23.092000000000	-0.15834583638113	0.67205440354461	572.54466164117	0.0000000000000
23.098000000000	-0.15501339374069	0.67269601257394	572.35601889817	0.0000000000000
23.104000000000	-0.15167946818337	0.67332097345818	572.16737615518	0.0000000000000
23.110000000000	-0.14834414091968	0.67392929220779	571.97873341218	0.0000000000000
23.116000000000	-0.14500749304119	0.67452097520201	571.79009066918	0.0000000000000
23.122000000000	-0.14166960551926	0.67509602918773	571.60144792619	0.0000000000000
23.128000000000	-0.13833055920371	0.67565446127849	571.41280518319	0.0000000000000
23.134000000000	-0.13499043482153	0.67619627895331	571.22416244020	0.0000000000000
23.140000000000	-0.13164931297553	0.67672149005566	571.03551969720	0.0000000000000
23.146000000000	-0.12830727414310	0.67723010279234	570.84687695421	0.0000000000000
23.152000000000	-0.12496439867491	0.67772212573241	570.65823421121	0.0000000000000
23.158000000000	-0.12162076679359	0.67819756780611	570.46959146821	0.0000000000000
23.164000000000	-0.11827645859250	0.67865643830377	570.28094872522	0.0000000000000
23.170000000000	-0.11493155403443	0.67909874687469	570.09230598222	0.0000000000000
23.176000000000	-0.11158613295036	0.67952450352612	569.90366323923	0.0000000000000
23.182000000000	-0.10824027503815	0.67993371862208	569.71502049623	0.0000000000000
23.188000000000	-0.10489405986134	0.68032640288236	569.52637775323	0.0000000000000
23.194000000000	-0.10154756684789	0.68070256738138	569.33773501024	0.0000000000000
23.200000000000	-0.098200875288911	0.68106222354710	569.14909226724	0.0000000000000
23.206000000000	-0.094854064337442	0.68140538315996	568.96044952425	0.0000000000000
23.212000000000	-0.091507213007229	0.68173205835174	568.77180678125	0.0000000000000
23.218000000000	-0.088160400171484	0.68204226160451	568.58316403826	0.0000000000000
23.224000000000	-0.084813704561671	0.68233600574953	568.39452129526	0.0000000000000
23.230000000000	-0.081467204766287	0.68261330396615	568.20587855226	0.0000000000000
23.236000000000	-0.078120979229650	0.68287416978069	568.01723580927	0.0000000000000
23.242000000000	-0.074775106250700	0.68311861706541	567.82859306627	0.0000000000000
23.248000000000	-0.071429663981791	0.68334666003733	567.63995032328	0.0000000000000
23.254000000000	-0.068084730427503	0.68355831325722	567.45130758028	0.0000000000000
23.260000000000	-0.064740383443447	0.68375359162845	567.26266483729	0.0000000000000
23.266000000000	-0.061396700735086	0.68393251039589	567.07402209429	0.0000000000000
23.272000000000	-0.058053759856545	0.68409508514484	566.88537935129	0.0000000000000
23.278000000000	-0.054711638209450	0.68424133179991	566.69673660830	0.0000000000000
23.284000000000	-0.051370413041752	0.68437126662395	566.50809386530	0.0000000000000
23.290000000000	-0.048030161446560	0.68448490621690	566.31945112231	0.0000000000000
23.296000000000	-0.044690960360985	0.68458226751473	566.13080837931	0.0000000000000
23.302000000000	-0.041352886564986	0.68466336778833	565.94216563631	0.0000000000000
23.308000000000	-0.038016016680218	0.68472822464238	565.75352289332	0.0000000000000
23.314000000000	-0.034680427168888	0.68477685601429	565.56488015032	0.0000000000000
23.320000000000	-0.031346194332615	0.68480928017306	565.37623740733	0.0000000000000
23.326000000000	-0.028013394311295	0.68482551571820	565.18759466433	0.0000000000000
23.332000000000	-0.024682103081971	0.68482558157859	564.99895192134	0.0000000000000
23.338000000000	-0.021352396457707	0.68480949701142	564.81030917834	0.0000000000000
23.344000000000	-0.018024350086465	0.68477728160103	564.62166643534	0.0000000000000
23.350000000000	-0.014698039449993	0.68472895525784	564.43302369235	0.0000000000000
23.356000000000	-0.011373539862709	0.68466453821722	564.24438094935	0.0000000000000
23.362000000000	-0.0080509264705984	0.68458405103839	564.05573820636	0.0000000000000
23.368000000000	-0.0047302742501094	0.68448751460330	563.86709546336	0.0000000000000
23.374000000000	-0.0014116580070503	0.68437495011551	563.67845272037	0.0000000000000
23.380000000000	0.0019048476244927	0.68424637909911	563.48980997737	0.0000000000000
23.386000000000	0.0052191681832522	0.68410182339754	563.30116723437	0.0000000000000
23.392000000000	0.0085312293818606	0.68394130517255	563.11252449138	0.0000000000000
23.398000000000	0.011840957107931	0.68376484690302	562.92388174838	0.0000000000000
